(1585900965.769974) vcan0 136#000200000000002A
(1585900965.769982) vcan0 13A#0000000000000028
(1585900965.769984) vcan0 13F#000000050000002E
(1585900965.769986) vcan0 164#0000C01AA8000004
(1585900965.769988) vcan0 17C#0000000010000021
(1585900965.771537) vcan0 18E#00006B
(1585900965.771544) vcan0 1CF#80050000003C
(1585900965.771546) vcan0 1DC#02000039
(1585900965.771548) vcan0 183#0000000500001024
(1585900965.772618) vcan0 143#6B6B00E0
(1585900965.774752) vcan0 095#800007F400000017
(1585900965.774758) vcan0 1A4#0000000800000010
(1585900965.775044) vcan0 244#00000001D8
(1585900965.775830) vcan0 1AA#7FFF000000006711
(1585900965.775836) vcan0 1B0#000F0000000157
(1585900965.775838) vcan0 1D0#000000000000000A
(1585900965.775840) vcan0 039#001B
(1585900965.777008) vcan0 166#D0320027
(1585900965.778148) vcan0 158#0000000000000028
(1585900965.779288) vcan0 161#000005500108002B
(1585900965.779294) vcan0 191#010090A1410012
(1585900965.779296) vcan0 133#00000000B6
(1585900965.779298) vcan0 136#0002000000000039
(1585900965.779300) vcan0 13A#0000000000000037
(1585900965.780367) vcan0 13F#000000050000003D
(1585900965.780373) vcan0 164#0000C01AA8000013
(1585900965.780375) vcan0 17C#0000000010000030
(1585900965.780377) vcan0 18E#00007A
(1585900965.780378) vcan0 294#040B0002CF5A000E
(1585900965.781460) vcan0 21E#03E83745220601
(1585900965.782527) vcan0 183#0000000300001035
(1585900965.782532) vcan0 143#6B6B00FF
(1585900965.784653) vcan0 095#800007F400000026
(1585900965.787837) vcan0 166#D0320036
(1585900965.788903) vcan0 158#0000000000000037
(1585900965.788908) vcan0 161#000005500108003A
(1585900965.788910) vcan0 191#010090A1410021
(1585900965.788912) vcan0 133#0000000089
(1585900965.789974) vcan0 136#000200000000000C
(1585900965.789979) vcan0 13A#000000000000000A
(1585900965.789981) vcan0 13F#0000000500000000
(1585900965.789983) vcan0 164#0000C01AA8000022
(1585900965.789984) vcan0 17C#0000000010000003
(1585900965.790263) vcan0 244#0000000181
(1585900965.791046) vcan0 18E#00004D
(1585900965.791052) vcan0 1CF#80050000000F
(1585900965.791053) vcan0 1DC#0200000C
(1585900965.792116) vcan0 183#0000000A00001001
(1585900965.792121) vcan0 039#002A
(1585900965.792123) vcan0 143#6B6B00C2
(1585900965.797187) vcan0 095#800007F400000035
(1585900965.797193) vcan0 1A4#000000080000002F
(1585900965.797195) vcan0 1AA#7FFF000000006720
(1585900965.797196) vcan0 1B0#000F0000000166
(1585900965.797198) vcan0 1D0#000000000000000A
(1585900965.797200) vcan0 166#D0320009
(1585900965.798264) vcan0 158#000000000000000A
(1585900965.799329) vcan0 161#000005500108000D
(1585900965.799335) vcan0 191#010090A1410030
(1585900965.799336) vcan0 133#0000000098
(1585900965.799338) vcan0 136#000200000000001B
(1585900965.799340) vcan0 13A#0000000000000019
(1585900965.800402) vcan0 13F#000000050000001F
(1585900965.800408) vcan0 164#0000C01AA8000031
(1585900965.800410) vcan0 17C#0000000010000012
(1585900965.800412) vcan0 18E#00005C
(1585900965.802289) vcan0 244#00000001F5
(1585900965.802772) vcan0 183#0000000700001013
(1585900965.802778) vcan0 143#6B6B00D1
(1585900965.804909) vcan0 095#800007F400000008
(1585900965.804915) vcan0 039#0039
(1585900965.807104) vcan0 166#D0320018
(1585900965.808223) vcan0 158#0000000000000019
(1585900965.809301) vcan0 161#000005500108001C
(1585900965.809308) vcan0 191#010090A1410003
(1585900965.809310) vcan0 133#00000000A7
(1585900965.809312) vcan0 136#000200000000002A
(1585900965.809314) vcan0 13A#0000000000000028
(1585900965.810402) vcan0 13F#000000050000002E
(1585900965.810415) vcan0 164#0000C01AA8000004
(1585900965.810417) vcan0 17C#0000000010000021
(1585900965.810419) vcan0 18E#00006B
(1585900965.810421) vcan0 1CF#80050000001E
(1585900965.811608) vcan0 1DC#0200001B
(1585900965.811641) vcan0 183#0000000500001024
(1585900965.812595) vcan0 244#000000015C
(1585900965.812763) vcan0 143#6B6B00E0
(1585900965.813871) vcan0 333#0000000000002D
(1585900965.815012) vcan0 095#800007F400000017
(1585900965.815033) vcan0 1A4#000000080000003E
(1585900965.816131) vcan0 1AA#7FFF00000000683E
(1585900965.816146) vcan0 1B0#000F0000000175
(1585900965.816151) vcan0 1D0#000000000000000A
(1585900965.817212) vcan0 166#D0320027
(1585900965.818306) vcan0 158#0000000000000028
(1585900965.818321) vcan0 161#000005500108002B
(1585900965.819406) vcan0 191#010090A1410012
(1585900965.819421) vcan0 133#00000000B6
(1585900965.819426) vcan0 136#0002000000000039
(1585900965.819431) vcan0 13A#0000000000000037
(1585900965.819468) vcan0 13F#000000050000003D
(1585900965.820553) vcan0 164#0000C01AA8000013
(1585900965.820569) vcan0 17C#0000000010000030
(1585900965.820573) vcan0 18E#00007A
(1585900965.820578) vcan0 294#040B0002CF5A001D
(1585900965.820582) vcan0 21E#03E83745220610
(1585900965.822730) vcan0 183#0000000B0000103D
(1585900965.822742) vcan0 143#6B6B00FF
(1585900965.824888) vcan0 095#800007F400000026
(1585900965.825976) vcan0 039#000C
(1585900965.827057) vcan0 166#D0320036
(1585900965.827897) vcan0 244#0000000126
(1585900965.828232) vcan0 158#0000000000000037
(1585900965.829570) vcan0 161#000005500108003A
(1585900965.829580) vcan0 191#010010A1410029
(1585900965.829584) vcan0 133#0000000089
(1585900965.829587) vcan0 136#000200000000000C
(1585900965.829590) vcan0 13A#000000000000000A
(1585900965.829593) vcan0 13F#0000000500000000
(1585900965.830664) vcan0 164#0000C01AA8000022
(1585900965.830675) vcan0 17C#0000000010000003
(1585900965.830678) vcan0 18E#00004D
(1585900965.830681) vcan0 1CF#80050000002D
(1585900965.830684) vcan0 1DC#0200002A
(1585900965.830687) vcan0 320#000021
(1585900965.831756) vcan0 324#7465000000000E29
(1585900965.831765) vcan0 37C#FD00FD00097F0029
(1585900965.831768) vcan0 183#0000000800001003
(1585900965.832837) vcan0 143#6B6B00C2
(1585900965.834976) vcan0 095#800007F400000035
(1585900965.834984) vcan0 1A4#0000000800000001
(1585900965.836054) vcan0 1AA#7FFF000000006801
(1585900965.836063) vcan0 1B0#000F0000000148
(1585900965.836065) vcan0 1D0#000000000000000A
(1585900965.837132) vcan0 166#D0320009
(1585900965.838201) vcan0 158#000000000000000A
(1585900965.839272) vcan0 161#000005500108000D
(1585900965.839280) vcan0 039#001B
(1585900965.839283) vcan0 191#010010A1410038
(1585900965.839285) vcan0 133#0000000098
(1585900965.839287) vcan0 136#000200000000001B
(1585900965.840353) vcan0 13A#0000000000000019
(1585900965.840361) vcan0 13F#000000050000001F
(1585900965.840364) vcan0 164#0000C01AA8000031
(1585900965.840366) vcan0 17C#0000000010000012
(1585900965.840368) vcan0 18E#00005C
(1585900965.840370) vcan0 305#8026
(1585900965.843139) vcan0 244#0000000139
(1585900965.843148) vcan0 183#0000000600001014
(1585900965.843152) vcan0 143#6B6B00D1
(1585900965.845279) vcan0 095#800007F400000008
(1585900965.847417) vcan0 166#D0320018
(1585900965.848484) vcan0 158#0000000000000019
(1585900965.848490) vcan0 161#000005500108001C
(1585900965.849554) vcan0 191#010010A141000B
(1585900965.849560) vcan0 133#00000000A7
(1585900965.849562) vcan0 136#000200000000002A
(1585900965.849564) vcan0 13A#0000000000000028
(1585900965.849566) vcan0 13F#000000050000002E
(1585900965.850629) vcan0 164#0000C01AA8000004
(1585900965.850635) vcan0 17C#0000000010000021
(1585900965.850637) vcan0 18E#00006B
(1585900965.850639) vcan0 1CF#80050000003C
(1585900965.850641) vcan0 1DC#02000039
(1585900965.851704) vcan0 183#0000000C0000102D
(1585900965.852854) vcan0 143#6B6B00E0
(1585900965.852860) vcan0 039#002A
(1585900965.855031) vcan0 095#800007F400000017
(1585900965.855038) vcan0 1A4#0000000800000010
(1585900965.855040) vcan0 1AA#7FFF000000006711
(1585900965.856107) vcan0 1B0#000F0000000157
(1585900965.856113) vcan0 1D0#000000000000000A
(1585900965.857185) vcan0 166#D0320027
(1585900965.858261) vcan0 158#0000000000000028
(1585900965.858469) vcan0 244#0000000119
(1585900965.859335) vcan0 161#000005500108002B
(1585900965.859341) vcan0 191#010010A141001A
(1585900965.859343) vcan0 133#00000000B6
(1585900965.859344) vcan0 136#0002000000000039
(1585900965.859346) vcan0 13A#0000000000000037
(1585900965.860554) vcan0 13F#000000050000003D
(1585900965.860560) vcan0 164#0000C01AA8000013
(1585900965.860562) vcan0 17C#0000000010000030
(1585900965.860563) vcan0 18E#00007A
(1585900965.860565) vcan0 294#040B0002CF5A002C
(1585900965.861640) vcan0 21E#03E8374522062F
(1585900965.861646) vcan0 309#00000000000000B1
(1585900965.862739) vcan0 183#000000090000103F
(1585900965.862753) vcan0 143#6B6B00FF
(1585900965.864881) vcan0 095#800007F400000026
(1585900965.867011) vcan0 166#D0320036
(1585900965.868253) vcan0 158#0000000000000037
(1585900965.868638) vcan0 244#000000017F
(1585900965.869326) vcan0 161#000005500108003A
(1585900965.869332) vcan0 191#010010A1410029
(1585900965.869334) vcan0 039#0039
(1585900965.869336) vcan0 133#0000000089
(1585900965.869337) vcan0 136#000200000000000C
(1585900965.869339) vcan0 13A#000000000000000A
(1585900965.870510) vcan0 13F#0000000500000000
(1585900965.870544) vcan0 164#0000C01AA8000022
(1585900965.870546) vcan0 17C#0000000010000003
(1585900965.870548) vcan0 18E#00004D
(1585900965.870549) vcan0 1CF#80050000000F
(1585900965.871664) vcan0 1DC#0200000C
(1585900965.871686) vcan0 183#0000000E0000100D
(1585900965.872829) vcan0 143#6B6B00C2
(1585900965.875089) vcan0 095#800007F400000035
(1585900965.875111) vcan0 1A4#000000080000002F
(1585900965.875128) vcan0 1AA#7FFF000000006720
(1585900965.876228) vcan0 1B0#000F0000000166
(1585900965.876244) vcan0 1D0#000000000000000A
(1585900965.877381) vcan0 166#D0320009
(1585900965.878568) vcan0 158#000000000000000A
(1585900965.878594) vcan0 161#000005500108000D
(1585900965.878600) vcan0 191#010010A1410038
(1585900965.879698) vcan0 133#0000000098
(1585900965.879715) vcan0 136#000200000000001B
(1585900965.879720) vcan0 13A#0000000000000019
(1585900965.879725) vcan0 13F#000000050000001F
(1585900965.879729) vcan0 164#0000C01AA8000031
(1585900965.880817) vcan0 17C#0000000010000012
(1585900965.880837) vcan0 18E#00005C
(1585900965.883070) vcan0 039#000C
(1585900965.883083) vcan0 183#0000000A00001010
(1585900965.883087) vcan0 143#6B6B00D1
(1585900965.884035) vcan0 244#0000000178
(1585900965.884991) vcan0 095#800007F800000004
(1585900965.887130) vcan0 166#D0320018
(1585900965.888194) vcan0 158#0000000000000019
(1585900965.889517) vcan0 161#000005500108001C
(1585900965.889523) vcan0 191#010010A141000B
(1585900965.889524) vcan0 133#00000000A7
(1585900965.889526) vcan0 136#000200000000002A
(1585900965.889528) vcan0 13A#0000000000000028
(1585900965.889529) vcan0 13F#000000050000002E
(1585900965.890639) vcan0 164#0000C01AA8000004
(1585900965.890645) vcan0 17C#0000000010000021
(1585900965.890647) vcan0 18E#00006B
(1585900965.890648) vcan0 1CF#80050000001E
(1585900965.890650) vcan0 1DC#0200001B
(1585900965.891757) vcan0 183#0000000700001022
(1585900965.892828) vcan0 143#6B6B00E0
(1585900965.894605) vcan0 244#0000000127
(1585900965.895111) vcan0 095#800007F800000013
(1585900965.895116) vcan0 1A4#000000080000003E
(1585900965.895117) vcan0 1AA#7FFF00000000683E
(1585900965.896185) vcan0 1B0#000F0000000175
(1585900965.896190) vcan0 1D0#000000000000000A
(1585900965.897250) vcan0 166#D0320027
(1585900965.898316) vcan0 039#001B
(1585900965.898322) vcan0 158#0000000000000028
(1585900965.898324) vcan0 161#000005500108002B
(1585900965.899386) vcan0 191#010010A141001A
(1585900965.899391) vcan0 133#00000000B6
(1585900965.899393) vcan0 136#0002000000000039
(1585900965.899395) vcan0 13A#0000000000000037
(1585900965.901001) vcan0 13F#000000050000003D
(1585900965.901007) vcan0 164#0000C01AA8000013
(1585900965.901009) vcan0 17C#0000000010000030
(1585900965.901010) vcan0 18E#00007A
(1585900965.901012) vcan0 294#040B0002CF5A003B
(1585900965.901014) vcan0 21E#03E8374522063E
(1585900965.902186) vcan0 183#0000000D0000103B
(1585900965.902201) vcan0 143#6B6B00FF
(1585900965.904597) vcan0 095#800007F800000022
(1585900965.907965) vcan0 166#D0320036
(1585900965.909049) vcan0 158#0000000000000037
(1585900965.909056) vcan0 161#000005500108003A
(1585900965.909058) vcan0 191#010010A1410029
(1585900965.909060) vcan0 133#0000000089
(1585900965.909063) vcan0 136#000200000000000C
(1585900965.909900) vcan0 244#00000001E2
(1585900965.910493) vcan0 13A#000000000000000A
(1585900965.910498) vcan0 13F#0000000500000000
(1585900965.910501) vcan0 164#0000C01AA8000022
(1585900965.910502) vcan0 17C#0000000010000003
(1585900965.910504) vcan0 18E#00004D
(1585900965.910505) vcan0 1CF#80050000002D
(1585900965.910507) vcan0 1DC#0200002A
(1585900965.911633) vcan0 039#002A
(1585900965.911641) vcan0 183#0000000900001002
(1585900965.912896) vcan0 143#6B6B00C2
(1585900965.914093) vcan0 333#0000000000003C
(1585900965.915169) vcan0 095#800007F800000031
(1585900965.915183) vcan0 1A4#0000000800000001
(1585900965.915185) vcan0 1AA#7FFF000000006801
(1585900965.916264) vcan0 1B0#000F0000000148
(1585900965.916278) vcan0 1D0#000000000000000A
(1585900965.917340) vcan0 166#D0320009
(1585900965.919121) vcan0 158#000000000000000A
(1585900965.919128) vcan0 161#000005500108000D
(1585900965.919129) vcan0 191#010010A1410038
(1585900965.919131) vcan0 133#0000000098
(1585900965.919133) vcan0 136#000200000000001B
(1585900965.920311) vcan0 13A#0000000000000019
(1585900965.920325) vcan0 13F#000000050000001F
(1585900965.920327) vcan0 164#0000C01AA8000031
(1585900965.920329) vcan0 17C#0000000010000012
(1585900965.920330) vcan0 18E#00005C
(1585900965.922722) vcan0 183#0000000E0000101C
(1585900965.922736) vcan0 143#6B6B00D1
(1585900965.924933) vcan0 095#800007F800000004
(1585900965.925618) vcan0 244#0000000100
(1585900965.927602) vcan0 166#D0320018
(1585900965.928752) vcan0 158#0000000000000019
(1585900965.928764) vcan0 161#000005500108001C
(1585900965.928766) vcan0 191#010010A141000B
(1585900965.928773) vcan0 133#00000000A7
(1585900965.929876) vcan0 136#000200000000002A
(1585900965.929891) vcan0 13A#0000000000000028
(1585900965.929893) vcan0 13F#000000050000002E
(1585900965.929895) vcan0 164#0000C01AA8000004
(1585900965.930964) vcan0 17C#0000000010000021
(1585900965.930978) vcan0 18E#00006B
(1585900965.930980) vcan0 1CF#80050000003C
(1585900965.930981) vcan0 039#0039
(1585900965.930983) vcan0 1DC#02000039
(1585900965.930985) vcan0 320#000030
(1585900965.932053) vcan0 324#7465000000000E38
(1585900965.932063) vcan0 37C#FD00FD00097F0038
(1585900965.932065) vcan0 40C#0000000004000013
(1585900965.932066) vcan0 183#0000000A0000102F
(1585900965.932079) vcan0 454#23EF18
(1585900965.933142) vcan0 143#6B6B00E0
(1585900965.935638) vcan0 095#800007F800000013
(1585900965.935645) vcan0 1A4#0000000800000010
(1585900965.935646) vcan0 1AA#7FFF000000006711
(1585900965.935648) vcan0 1B0#000F0000000157
(1585900965.935650) vcan0 1D0#000000000000000A
(1585900965.937906) vcan0 166#D0320027
(1585900965.939214) vcan0 158#0000000000000028
(1585900965.939229) vcan0 161#000005500108002B
(1585900965.939231) vcan0 191#010010A141001A
(1585900965.939233) vcan0 133#00000000B6
(1585900965.939234) vcan0 136#0002000000000039
(1585900965.939236) vcan0 13A#0000000000000037
(1585900965.940339) vcan0 13F#000000050000003D
(1585900965.940353) vcan0 164#0000C01AA8000013
(1585900965.940355) vcan0 17C#0000000010000030
(1585900965.940357) vcan0 18E#00007A
(1585900965.940358) vcan0 294#040B0002CF5A000E
(1585900965.941231) vcan0 244#0000000185
(1585900965.941797) vcan0 21E#03E83745220601
(1585900965.943137) vcan0 183#0000000700001031
(1585900965.943152) vcan0 143#6B6B00FF
(1585900965.944467) vcan0 039#000C
(1585900965.944481) vcan0 305#8035
(1585900965.944483) vcan0 095#800007F800000022
(1585900965.947083) vcan0 166#D0320036
(1585900965.948168) vcan0 158#0000000000000037
(1585900965.949238) vcan0 161#000005500108003A
(1585900965.949244) vcan0 191#010010A1410029
(1585900965.949246) vcan0 133#0000000089
(1585900965.949247) vcan0 136#000200000000000C
(1585900965.949249) vcan0 13A#000000000000000A
(1585900965.950312) vcan0 13F#0000000500000000
(1585900965.950318) vcan0 164#0000C01AA8000022
(1585900965.950320) vcan0 17C#0000000010000003
(1585900965.950321) vcan0 18E#00004D
(1585900965.950323) vcan0 1CF#80050000000F
(1585900965.952004) vcan0 1DC#0200000C
(1585900965.952012) vcan0 183#0000000D0000100E
(1585900965.952014) vcan0 143#6B6B00C2
(1585900965.952037) vcan0 244#00000001D8
(1585900965.955587) vcan0 095#800007F800000031
(1585900965.955602) vcan0 1A4#000000080000002F
(1585900965.955604) vcan0 1AA#7FFF000000006720
(1585900965.955606) vcan0 1B0#000F0000000166
(1585900965.955608) vcan0 1D0#000000000000000A
(1585900965.957926) vcan0 166#D0320009
(1585900965.959075) vcan0 158#000000000000000A
(1585900965.959086) vcan0 161#000005500108000D
(1585900965.959089) vcan0 039#001B
(1585900965.959090) vcan0 191#010010A1410038
(1585900965.959092) vcan0 133#0000000098
(1585900965.959094) vcan0 136#000200000000001B
(1585900965.960168) vcan0 13A#0000000000000019
(1585900965.960175) vcan0 13F#000000050000001F
(1585900965.960177) vcan0 164#0000C01AA8000031
(1585900965.960179) vcan0 17C#0000000010000012
(1585900965.961300) vcan0 18E#00005C
(1585900965.961306) vcan0 309#0000000000000084
(1585900965.961309) vcan0 428#01040000521C2F
(1585900965.961310) vcan0 405#0000040000000029
(1585900965.962429) vcan0 183#0000000900001011
(1585900965.962436) vcan0 143#6B6B00D1
(1585900965.964614) vcan0 095#800007F800000004
(1585900965.967532) vcan0 244#000000013A
(1585900965.968093) vcan0 166#D0320018
(1585900965.968101) vcan0 158#0000000000000019
(1585900965.969789) vcan0 161#000005500108001C
(1585900965.969796) vcan0 191#010010A141000B
(1585900965.969798) vcan0 133#00000000A7
(1585900965.969800) vcan0 136#000200000000002A
(1585900965.969801) vcan0 13A#0000000000000028
(1585900965.969803) vcan0 13F#000000050000002E
(1585900965.969805) vcan0 164#0000C01AA8000004
(1585900965.970908) vcan0 17C#0000000010000021
(1585900965.970923) vcan0 18E#00006B
(1585900965.970925) vcan0 1CF#80050000001E
(1585900965.970927) vcan0 1DC#0200001B
(1585900965.972225) vcan0 183#0000000600001023
(1585900965.972239) vcan0 143#6B6B00E0
(1585900965.973579) vcan0 039#002A
(1585900965.974842) vcan0 095#800007F800000013
(1585900965.974861) vcan0 1A4#000000080000003E
(1585900965.977259) vcan0 166#D0320009
(1585900965.977272) vcan0 158#000000000000000A
(1585900965.978042) vcan0 244#000000010D
(1585900965.978649) vcan0 161#000005500108000D
(1585900965.978658) vcan0 191#010090A1410030
(1585900965.978660) vcan0 18E#00005C
(1585900965.978662) vcan0 133#0000000098
(1585900965.978664) vcan0 136#000200000000001B
(1585900965.979847) vcan0 13A#0000000000000019
(1585900965.979861) vcan0 13F#000000050000001F
(1585900965.979863) vcan0 164#0000C01AA8000031
(1585900965.979865) vcan0 17C#0000000010000012
(1585900965.980938) vcan0 183#0000000E0000101C
(1585900965.982011) vcan0 039#000C
(1585900965.982017) vcan0 143#6B6B00D1
(1585900965.984871) vcan0 095#800007F400000008
(1585900965.985982) vcan0 166#D0320018
(1585900965.987307) vcan0 158#0000000000000019
(1585900965.988407) vcan0 161#000005500108001C
(1585900965.988420) vcan0 191#010090A1410003
(1585900965.988422) vcan0 164#0000C01AA8000004
(1585900965.988424) vcan0 133#00000000A7
(1585900965.988426) vcan0 136#000200000000002A
(1585900965.989991) vcan0 13A#0000000000000028
(1585900965.989999) vcan0 13F#000000050000002E
(1585900965.990001) vcan0 17C#0000000010000021
(1585900965.990002) vcan0 18E#00006B
(1585900965.990004) vcan0 1CF#80050000003C
(1585900965.990006) vcan0 1DC#02000039
(1585900965.990007) vcan0 320#000030
(1585900965.991310) vcan0 324#7465000000000E38
(1585900965.991325) vcan0 183#0000000A0000102F
(1585900965.991327) vcan0 37C#FD00FD00097F0038
(1585900965.992432) vcan0 143#6B6B00E0
(1585900965.993390) vcan0 244#000000010E
(1585900965.993933) vcan0 095#800007F400000017
(1585900965.995237) vcan0 1A4#0000000800000010
(1585900965.995251) vcan0 1AA#7FFF000000006810
(1585900965.995253) vcan0 1B0#000F0000000157
(1585900965.995255) vcan0 1D0#000000000000000A
(1585900965.996359) vcan0 039#001B
(1585900965.996374) vcan0 166#D0320027
(1585900965.997470) vcan0 158#0000000000000028
(1585900965.997483) vcan0 161#000005500108002B
(1585900965.998548) vcan0 191#010090A1410012
(1585900965.998558) vcan0 164#0000C01AA8000013
(1585900965.998560) vcan0 133#00000000B6
(1585900965.998562) vcan0 136#0002000000000039
(1585900965.999630) vcan0 13A#0000000000000037
(1585900965.999636) vcan0 13F#000000050000003D
(1585900965.999638) vcan0 17C#0000000010000030
(1585900965.999639) vcan0 18E#00007A
(1585900965.999641) vcan0 294#040B0002CF5A000E
(1585900966.000704) vcan0 21E#03E83745220601
(1585900966.000710) vcan0 183#0000000F00001039
(1585900966.002332) vcan0 143#6B6B00FF
(1585900966.003443) vcan0 095#800007F400000026
(1585900966.003575) vcan0 244#00000001C5
(1585900966.007132) vcan0 166#D0320036
(1585900966.008440) vcan0 158#0000000000000037
(1585900966.008454) vcan0 161#000005500108003A
(1585900966.008456) vcan0 164#0000C01AA8000022
(1585900966.008458) vcan0 191#010090A1410021
(1585900966.008460) vcan0 133#0000000089
(1585900966.008462) vcan0 136#000200000000000C
(1585900966.009567) vcan0 13A#000000000000000A
(1585900966.009583) vcan0 13F#0000000500000000
(1585900966.009585) vcan0 17C#0000000010000003
(1585900966.009587) vcan0 18E#00004D
(1585900966.009589) vcan0 1CF#80050000000F
(1585900966.010740) vcan0 1DC#0200000C
(1585900966.010753) vcan0 183#0000000B00001000
(1585900966.011828) vcan0 143#6B6B00C2
(1585900966.014010) vcan0 095#800007F400000035
(1585900966.014017) vcan0 1A4#000000080000002F
(1585900966.015081) vcan0 1AA#7FFF00000000682F
(1585900966.015088) vcan0 1B0#000F0000000166
(1585900966.015090) vcan0 1D0#000000000000000A
(1585900966.016159) vcan0 166#D0320009
(1585900966.018680) vcan0 158#000000000000000A
(1585900966.018697) vcan0 161#000005500108000D
(1585900966.018699) vcan0 191#010090A1410030
(1585900966.018701) vcan0 164#0000C01AA8000031
(1585900966.018703) vcan0 133#0000000098
(1585900966.018705) vcan0 136#000200000000001B
(1585900966.018706) vcan0 039#002A
(1585900966.018845) vcan0 244#000000017E
(1585900966.019790) vcan0 13A#0000000000000019
(1585900966.019802) vcan0 13F#000000050000001F
(1585900966.019804) vcan0 17C#0000000010000012
(1585900966.019806) vcan0 18E#00005C
(1585900966.019807) vcan0 309#0000000000000084
(1585900966.020913) vcan0 183#0000000800001012
(1585900966.022031) vcan0 143#6B6B00D1
(1585900966.023343) vcan0 095#800007F400000008
(1585900966.026928) vcan0 166#D0320018
(1585900966.028210) vcan0 158#0000000000000019
(1585900966.028226) vcan0 161#000005500108001C
(1585900966.028235) vcan0 191#010090A1410003
(1585900966.028238) vcan0 164#0000C01AA8000004
(1585900966.028240) vcan0 133#00000000A7
(1585900966.029320) vcan0 136#000200000000002A
(1585900966.029335) vcan0 13A#0000000000000028
(1585900966.029337) vcan0 13F#000000050000002E
(1585900966.029339) vcan0 17C#0000000010000021
(1585900966.029340) vcan0 18E#00006B
(1585900966.030445) vcan0 1CF#80050000001E
(1585900966.030459) vcan0 1DC#0200001B
(1585900966.030462) vcan0 183#0000000600001023
(1585900966.031532) vcan0 143#6B6B00E0
(1585900966.032603) vcan0 039#0039
(1585900966.033669) vcan0 095#800007F400000017
(1585900966.034348) vcan0 244#0000000175
(1585900966.034831) vcan0 1A4#000000080000003E
(1585900966.034836) vcan0 1AA#7FFF00000000673F
(1585900966.034838) vcan0 1B0#000F0000000175
(1585900966.034840) vcan0 1D0#000000000000000A
(1585900966.036316) vcan0 166#D0320027
(1585900966.037618) vcan0 158#0000000000000028
(1585900966.037632) vcan0 161#000005500108002B
(1585900966.038923) vcan0 191#010090A1410012
(1585900966.038938) vcan0 164#0000C01AA8000013
(1585900966.038940) vcan0 133#00000000B6
(1585900966.038942) vcan0 136#0002000000000039
(1585900966.038944) vcan0 13A#0000000000000037
(1585900966.040053) vcan0 13F#000000050000003D
(1585900966.040068) vcan0 17C#0000000010000030
(1585900966.040070) vcan0 18E#00007A
(1585900966.040072) vcan0 294#040B0002CF5A001D
(1585900966.040073) vcan0 21E#03E83745220610
(1585900966.041202) vcan0 183#0000000400001034
(1585900966.042495) vcan0 143#6B6B00FF
(1585900966.043611) vcan0 095#800007F400000026
(1585900966.044694) vcan0 244#0000000165
(1585900966.046003) vcan0 166#D0320036
(1585900966.047121) vcan0 039#000C
(1585900966.048204) vcan0 158#0000000000000037
(1585900966.048214) vcan0 161#000005500108003A
(1585900966.048216) vcan0 164#0000C01AA8000022
(1585900966.048218) vcan0 191#010090A1410021
(1585900966.048220) vcan0 133#0000000089
(1585900966.049281) vcan0 136#000200000000000C
(1585900966.049287) vcan0 13A#000000000000000A
(1585900966.049289) vcan0 13F#0000000500000000
(1585900966.049291) vcan0 17C#0000000010000003
(1585900966.049292) vcan0 18E#00004D
(1585900966.050355) vcan0 1CF#80050000002D
(1585900966.050361) vcan0 1DC#0200002A
(1585900966.050363) vcan0 183#0000000A00001001
(1585900966.052455) vcan0 143#6B6B00C2
(1585900966.053565) vcan0 095#800007F400000035
(1585900966.054680) vcan0 1A4#0000000800000001
(1585900966.054694) vcan0 1AA#7FFF000000006702
(1585900966.054696) vcan0 1B0#000F0000000148
(1585900966.055994) vcan0 1D0#000000000000000A
(1585900966.056008) vcan0 166#D0320009
(1585900966.058207) vcan0 158#000000000000000A
(1585900966.058222) vcan0 161#000005500108000D
(1585900966.058224) vcan0 191#010090A1410030
(1585900966.058226) vcan0 164#0000C01AA8000031
(1585900966.058228) vcan0 133#0000000098
(1585900966.059516) vcan0 136#000200000000001B
(1585900966.059530) vcan0 13A#0000000000000019
(1585900966.059533) vcan0 13F#000000050000001F
(1585900966.059535) vcan0 17C#0000000010000012
(1585900966.059536) vcan0 18E#00005C
(1585900966.060066) vcan0 244#000000011E
(1585900966.060633) vcan0 039#001B
(1585900966.060643) vcan0 183#0000000700001013
(1585900966.061747) vcan0 143#6B6B00D1
(1585900966.063982) vcan0 095#800007F400000008
(1585900966.066131) vcan0 166#D0320018
(1585900966.069031) vcan0 158#0000000000000019
(1585900966.069042) vcan0 161#000005500108001C
(1585900966.069044) vcan0 191#010090A1410003
(1585900966.069046) vcan0 164#0000C01AA8000004
(1585900966.069048) vcan0 133#00000000A7
(1585900966.069049) vcan0 136#000200000000002A
(1585900966.069051) vcan0 13A#0000000000000028
(1585900966.069053) vcan0 13F#000000050000002E
(1585900966.070135) vcan0 17C#0000000010000021
(1585900966.070144) vcan0 18E#00006B
(1585900966.070146) vcan0 1CF#80050000003C
(1585900966.070148) vcan0 1DC#02000039
(1585900966.070150) vcan0 183#0000000500001024
(1585900966.072343) vcan0 143#6B6B00E0
(1585900966.072357) vcan0 333#0000000000000F
(1585900966.073558) vcan0 095#800007F400000017
(1585900966.073572) vcan0 039#002A
(1585900966.074676) vcan0 1A4#0000000800000010
(1585900966.074690) vcan0 305#8017
(1585900966.074693) vcan0 1AA#7FFF000000006810
(1585900966.074694) vcan0 1B0#000F0000000157
(1585900966.075539) vcan0 244#00000001E9
(1585900966.076164) vcan0 1D0#000000000000000A
(1585900966.076179) vcan0 166#D0320027
(1585900966.077427) vcan0 158#0000000000000028
(1585900966.078533) vcan0 161#000005500108002B
(1585900966.078545) vcan0 191#010090A1410012
(1585900966.078547) vcan0 18E#00007A
(1585900966.078549) vcan0 133#00000000B6
(1585900966.078551) vcan0 136#0002000000000039
(1585900966.079662) vcan0 13A#0000000000000037
(1585900966.079676) vcan0 13F#000000050000003D
(1585900966.079678) vcan0 164#0000C01AA8000013
(1585900966.079680) vcan0 17C#0000000010000030
(1585900966.080748) vcan0 294#040B0002CF5A002C
(1585900966.080761) vcan0 21E#03E8374522062F
(1585900966.080763) vcan0 183#0000000B0000103D
(1585900966.081833) vcan0 143#6B6B00FF
(1585900966.083963) vcan0 095#800007F400000026
(1585900966.085801) vcan0 244#0000000139
(1585900966.086576) vcan0 039#0039
(1585900966.086582) vcan0 166#D0320036
(1585900966.087877) vcan0 158#0000000000000037
(1585900966.087892) vcan0 161#000005500108003A
(1585900966.087894) vcan0 191#010010A1410029
(1585900966.089006) vcan0 164#0000C01AA8000022
(1585900966.089019) vcan0 133#0000000089
(1585900966.089022) vcan0 136#000200000000000C
(1585900966.089024) vcan0 13A#000000000000000A
(1585900966.089025) vcan0 13F#0000000500000000
(1585900966.090131) vcan0 17C#0000000010000003
(1585900966.090145) vcan0 18E#00004D
(1585900966.090147) vcan0 1CF#80050000000F
(1585900966.090149) vcan0 1DC#0200000C
(1585900966.090151) vcan0 320#000003
(1585900966.090152) vcan0 183#0000000800001003
(1585900966.091233) vcan0 324#7465000000000E0B
(1585900966.091248) vcan0 37C#FD00FD00097F000B
(1585900966.092439) vcan0 143#6B6B00C2
(1585900966.093555) vcan0 095#800007F400000035
(1585900966.094672) vcan0 1A4#000000080000002F
(1585900966.094686) vcan0 1AA#7FFF00000000682F
(1585900966.094688) vcan0 1B0#000F0000000166
(1585900966.096049) vcan0 1D0#000000000000000A
(1585900966.096064) vcan0 166#D0320009
(1585900966.098300) vcan0 158#000000000000000A
(1585900966.098310) vcan0 161#000005500108000D
(1585900966.098312) vcan0 191#010010A1410038
(1585900966.098314) vcan0 18E#00005C
(1585900966.098316) vcan0 133#0000000098
(1585900966.099379) vcan0 136#000200000000001B
(1585900966.099385) vcan0 13A#0000000000000019
(1585900966.099387) vcan0 13F#000000050000001F
(1585900966.099388) vcan0 164#0000C01AA8000031
(1585900966.100451) vcan0 17C#0000000010000012
(1585900966.101201) vcan0 244#0000000118
(1585900966.101694) vcan0 183#0000000600001014
(1585900966.101699) vcan0 039#000C
(1585900966.101701) vcan0 143#6B6B00D1
(1585900966.104464) vcan0 095#800007F400000008
(1585900966.107196) vcan0 166#D0320018
(1585900966.108314) vcan0 158#0000000000000019
(1585900966.108328) vcan0 161#000005500108001C
(1585900966.108330) vcan0 191#010010A141000B
(1585900966.108333) vcan0 164#0000C01AA8000004
(1585900966.108334) vcan0 133#00000000A7
(1585900966.109683) vcan0 136#000200000000002A
(1585900966.109696) vcan0 13A#0000000000000028
(1585900966.109698) vcan0 13F#000000050000002E
(1585900966.109700) vcan0 17C#0000000010000021
(1585900966.109702) vcan0 18E#00006B
(1585900966.109704) vcan0 1CF#80050000001E
(1585900966.109705) vcan0 1DC#0200001B
(1585900966.110809) vcan0 183#0000000400001025
(1585900966.111829) vcan0 244#00000001B4
(1585900966.111904) vcan0 143#6B6B00E0
(1585900966.114266) vcan0 095#800007F400000017
(1585900966.114280) vcan0 1A4#000000080000003E
(1585900966.114282) vcan0 039#001B
(1585900966.115345) vcan0 1AA#7FFF00000000673F
(1585900966.115351) vcan0 1B0#000F0000000175
(1585900966.115353) vcan0 1D0#000000000000000A
(1585900966.116415) vcan0 166#D0320027
(1585900966.117482) vcan0 158#0000000000000028
(1585900966.117488) vcan0 161#000005500108002B
(1585900966.119252) vcan0 191#010010A141001A
(1585900966.119260) vcan0 164#0000C01AA8000013
(1585900966.119262) vcan0 133#00000000B6
(1585900966.119264) vcan0 136#0002000000000039
(1585900966.119265) vcan0 13A#0000000000000037
(1585900966.119267) vcan0 13F#000000050000003D
(1585900966.119269) vcan0 17C#0000000010000030
(1585900966.120455) vcan0 18E#00007A
(1585900966.120462) vcan0 294#040B0002CF5A003B
(1585900966.120465) vcan0 21E#03E8374522063E
(1585900966.120466) vcan0 309#0000000000000093
(1585900966.121667) vcan0 183#0000000300001035
(1585900966.121674) vcan0 143#6B6B00FF
(1585900966.124228) vcan0 095#800007F400000026
(1585900966.126600) vcan0 166#D0320036
(1585900966.127440) vcan0 244#00000001DC
(1585900966.128065) vcan0 158#0000000000000037
(1585900966.128075) vcan0 161#000005500108003A
(1585900966.128078) vcan0 039#002A
(1585900966.128083) vcan0 191#010010A1410029
(1585900966.128085) vcan0 164#0000C01AA8000022
(1585900966.129513) vcan0 133#0000000089
(1585900966.129527) vcan0 136#000200000000000C
(1585900966.129529) vcan0 13A#000000000000000A
(1585900966.129531) vcan0 13F#0000000500000000
(1585900966.129533) vcan0 17C#0000000010000003
(1585900966.129535) vcan0 18E#00004D
(1585900966.130773) vcan0 1CF#80050000002D
(1585900966.130787) vcan0 1DC#0200002A
(1585900966.130790) vcan0 183#0000000A00001001
(1585900966.131859) vcan0 143#6B6B00C2
(1585900966.133991) vcan0 095#800007F400000035
(1585900966.133997) vcan0 1A4#0000000800000001
(1585900966.135861) vcan0 1AA#7FFF000000006702
(1585900966.135868) vcan0 1B0#000F0000000148
(1585900966.135869) vcan0 1D0#000000000000000A
(1585900966.137301) vcan0 166#D0320009
(1585900966.137315) vcan0 158#000000000000000A
(1585900966.137883) vcan0 244#000000016F
(1585900966.138443) vcan0 161#000005500108000D
(1585900966.138452) vcan0 191#010010A1410038
(1585900966.138454) vcan0 18E#00005C
(1585900966.138456) vcan0 133#0000000098
(1585900966.139724) vcan0 136#000200000000001B
(1585900966.139739) vcan0 13A#0000000000000019
(1585900966.139741) vcan0 13F#000000050000001F
(1585900966.139743) vcan0 164#0000C01AA8000031
(1585900966.139745) vcan0 17C#0000000010000012
(1585900966.140848) vcan0 183#0000000700001013
(1585900966.142220) vcan0 143#6B6B00D1
(1585900966.143299) vcan0 095#800007F400000008
(1585900966.144768) vcan0 039#0039
(1585900966.146125) vcan0 166#D0320018
(1585900966.147246) vcan0 158#0000000000000019
(1585900966.148329) vcan0 161#000005500108001C
(1585900966.148339) vcan0 191#010010A141000B
(1585900966.148341) vcan0 164#0000C01AA8000004
(1585900966.148343) vcan0 133#00000000A7
(1585900966.149403) vcan0 136#000200000000002A
(1585900966.149409) vcan0 13A#0000000000000028
(1585900966.149411) vcan0 13F#000000050000002E
(1585900966.149413) vcan0 17C#0000000010000021
(1585900966.149415) vcan0 18E#00006B
(1585900966.150478) vcan0 1CF#80050000003C
(1585900966.150484) vcan0 1DC#02000039
(1585900966.150486) vcan0 183#0000000500001024
(1585900966.152032) vcan0 143#6B6B00E0
(1585900966.153370) vcan0 095#800007F400000017
(1585900966.153522) vcan0 244#0000000143
(1585900966.154453) vcan0 1A4#0000000800000010
(1585900966.154462) vcan0 1AA#7FFF000000006810
(1585900966.155788) vcan0 1B0#000F0000000157
(1585900966.155802) vcan0 1D0#000000000000000A
(1585900966.156905) vcan0 166#D0320027
(1585900966.156920) vcan0 039#000C
(1585900966.158239) vcan0 158#0000000000000028
(1585900966.158253) vcan0 161#000005500108002B
(1585900966.158256) vcan0 191#010010A141001A
(1585900966.158258) vcan0 164#0000C01AA8000013
(1585900966.159650) vcan0 133#00000000B6
(1585900966.159665) vcan0 136#0002000000000039
(1585900966.159667) vcan0 13A#0000000000000037
(1585900966.159669) vcan0 13F#000000050000003D
(1585900966.159670) vcan0 17C#0000000010000030
(1585900966.159672) vcan0 18E#00007A
(1585900966.159674) vcan0 294#040B0002CF5A000E
(1585900966.160830) vcan0 21E#03E83745220601
(1585900966.160845) vcan0 183#0000000300001035
(1585900966.161949) vcan0 143#6B6B00FF
(1585900966.163299) vcan0 095#800007F400000026
(1585900966.164002) vcan0 244#0000000172
(1585900966.166711) vcan0 166#D0320036
(1585900966.167783) vcan0 158#0000000000000037
(1585900966.167791) vcan0 161#000005500108003A
(1585900966.167793) vcan0 191#010010A1410029
(1585900966.169275) vcan0 18E#00004D
(1585900966.169281) vcan0 133#0000000089
(1585900966.169283) vcan0 136#000200000000000C
(1585900966.169285) vcan0 13A#000000000000000A
(1585900966.169287) vcan0 13F#0000000500000000
(1585900966.169288) vcan0 164#0000C01AA8000022
(1585900966.170417) vcan0 17C#0000000010000003
(1585900966.170425) vcan0 1CF#80050000000F
(1585900966.170427) vcan0 1DC#0200000C
(1585900966.170429) vcan0 183#0000000200001009
(1585900966.171552) vcan0 143#6B6B00C2
(1585900966.172794) vcan0 333#0000000000001E
(1585900966.173884) vcan0 095#800007F400000035
(1585900966.174984) vcan0 1A4#000000080000002F
(1585900966.174998) vcan0 1AA#7FFF00000000682F
(1585900966.175000) vcan0 1B0#000F0000000166
(1585900966.175002) vcan0 039#001B
(1585900966.175004) vcan0 1D0#000000000000000A
(1585900966.176106) vcan0 305#8026
(1585900966.176119) vcan0 166#D0320009
(1585900966.177352) vcan0 158#000000000000000A
(1585900966.178469) vcan0 161#000005500108000D
(1585900966.178489) vcan0 191#010010A1410038
(1585900966.178491) vcan0 18E#00005C
(1585900966.178493) vcan0 133#0000000098
(1585900966.178495) vcan0 136#000200000000001B
(1585900966.179529) vcan0 244#000000013B
(1585900966.179618) vcan0 13A#0000000000000019
(1585900966.179626) vcan0 13F#000000050000001F
(1585900966.179628) vcan0 164#0000C01AA8000031
(1585900966.179630) vcan0 17C#0000000010000012
(1585900966.180776) vcan0 183#0000000900001011
(1585900966.181858) vcan0 143#6B6B00D1
(1585900966.183989) vcan0 095#800007F400000008
(1585900966.186837) vcan0 166#D0320018
(1585900966.187954) vcan0 158#0000000000000019
(1585900966.187969) vcan0 161#000005500108001C
(1585900966.187971) vcan0 191#010010A141000B
(1585900966.189053) vcan0 164#0000C01AA8000004
(1585900966.189079) vcan0 133#00000000A7
(1585900966.189082) vcan0 136#000200000000002A
(1585900966.189084) vcan0 13A#0000000000000028
(1585900966.189085) vcan0 13F#000000050000002E
(1585900966.190195) vcan0 17C#0000000010000021
(1585900966.190210) vcan0 18E#00006B
(1585900966.190212) vcan0 1CF#80050000001E
(1585900966.190213) vcan0 039#002A
(1585900966.190215) vcan0 1DC#0200001B
(1585900966.190217) vcan0 320#000012
(1585900966.190956) vcan0 244#0000000137
(1585900966.191526) vcan0 183#0000000600001023
(1585900966.191535) vcan0 324#7465000000000E1A
(1585900966.191538) vcan0 37C#FD00FD00097F001A
(1585900966.191540) vcan0 40C#0236323239533039
(1585900966.191541) vcan0 454#23EF36
(1585900966.192663) vcan0 143#6B6B00E0
(1585900966.193838) vcan0 095#800007F400000017
(1585900966.194952) vcan0 1A4#000000080000003E
(1585900966.194968) vcan0 1AA#7FFF00000000673F
(1585900966.194970) vcan0 1B0#000F0000000175
(1585900966.194972) vcan0 1D0#000000000000000A
(1585900966.196098) vcan0 166#D0320027
(1585900966.198244) vcan0 158#0000000000000028
(1585900966.198259) vcan0 161#000005500108002B
(1585900966.198261) vcan0 191#010010A141001A
(1585900966.198263) vcan0 133#00000000B6
(1585900966.199326) vcan0 136#0002000000000039
(1585900966.199333) vcan0 13A#0000000000000037
(1585900966.199335) vcan0 13F#000000050000003D
(1585900966.199337) vcan0 164#0000C01AA8000013
(1585900966.199339) vcan0 17C#0000000010000030
(1585900966.200402) vcan0 18E#00007A
(1585900966.200408) vcan0 294#040B0002CF5A001D
(1585900966.200411) vcan0 21E#03E83745220610
(1585900966.202011) vcan0 244#0000000190
(1585900966.202057) vcan0 183#0000000400001034
(1585900966.202061) vcan0 143#6B6B00FF
(1585900966.203394) vcan0 095#800007F400000026
(1585900966.204511) vcan0 039#0039
(1585900966.206887) vcan0 166#D0320036
(1585900966.208019) vcan0 158#0000000000000037
(1585900966.208027) vcan0 161#000005500108003A
(1585900966.208029) vcan0 191#010010A1410029
(1585900966.208031) vcan0 164#0000C01AA8000022
(1585900966.209182) vcan0 133#0000000089
(1585900966.209196) vcan0 136#000200000000000C
(1585900966.209198) vcan0 13A#000000000000000A
(1585900966.209201) vcan0 13F#0000000500000000
(1585900966.209202) vcan0 17C#0000000010000003
(1585900966.210607) vcan0 18E#00004D
(1585900966.210621) vcan0 1CF#80050000002D
(1585900966.210624) vcan0 1DC#0200002A
(1585900966.210625) vcan0 183#0000000A00001001
(1585900966.212044) vcan0 143#6B6B00C2
(1585900966.213025) vcan0 244#00000001CD
(1585900966.213035) vcan0 188#00000000
(1585900966.214195) vcan0 095#800007F400000035
(1585900966.214206) vcan0 1A4#0000000800000001
(1585900966.215269) vcan0 1AA#7FFF000000006702
(1585900966.215275) vcan0 1B0#000F0000000148
(1585900966.215277) vcan0 1D0#000000000000000A
(1585900966.216340) vcan0 166#D0320009
(1585900966.217405) vcan0 158#000000000000000A
(1585900966.218769) vcan0 161#000005500108000D
(1585900966.218776) vcan0 039#000C
(1585900966.218778) vcan0 191#010010A1410038
(1585900966.218780) vcan0 164#0000C01AA8000031
(1585900966.218781) vcan0 133#0000000098
(1585900966.218783) vcan0 136#000200000000001B
(1585900966.218785) vcan0 13A#0000000000000019
(1585900966.219908) vcan0 13F#000000050000001F
(1585900966.219915) vcan0 17C#0000000010000012
(1585900966.219917) vcan0 18E#00005C
(1585900966.219919) vcan0 309#00000000000000A2
(1585900966.219921) vcan0 428#01040000521C01
(1585900966.221064) vcan0 405#000004000000000B
(1585900966.221071) vcan0 183#0000000700001013
(1585900966.222239) vcan0 143#6B6B00D1
(1585900966.223361) vcan0 095#800007F400000008
(1585900966.224028) vcan0 244#0000000130
(1585900966.226742) vcan0 166#D0320018
(1585900966.227854) vcan0 158#0000000000000019
(1585900966.227874) vcan0 161#000005500108001C
(1585900966.227876) vcan0 191#010010A141000B
(1585900966.229254) vcan0 164#0000C01AA8000004
(1585900966.229268) vcan0 133#00000000A7
(1585900966.229271) vcan0 136#000200000000002A
(1585900966.229272) vcan0 13A#0000000000000028
(1585900966.229274) vcan0 13F#000000050000002E
(1585900966.229276) vcan0 17C#0000000010000021
(1585900966.229277) vcan0 18E#00006B
(1585900966.230381) vcan0 1CF#80050000003C
(1585900966.230395) vcan0 1DC#02000039
(1585900966.230397) vcan0 183#0000000500001024
(1585900966.231480) vcan0 039#001B
(1585900966.232562) vcan0 143#6B6B00E0
(1585900966.233632) vcan0 095#800007F400000017
(1585900966.234698) vcan0 1A4#0000000800000010
(1585900966.234705) vcan0 1AA#7FFF000000006810
(1585900966.234707) vcan0 1B0#000F0000000157
(1585900966.236163) vcan0 1D0#000000000000000A
(1585900966.236170) vcan0 166#D0320027
(1585900966.237337) vcan0 158#0000000000000028
(1585900966.238753) vcan0 161#000005500108002B
(1585900966.238768) vcan0 191#010010A141001A
(1585900966.238770) vcan0 164#0000C01AA8000013
(1585900966.238771) vcan0 133#00000000B6
(1585900966.238773) vcan0 136#0002000000000039
(1585900966.238775) vcan0 13A#0000000000000037
(1585900966.239699) vcan0 244#0000000152
(1585900966.240265) vcan0 13F#000000050000003D
(1585900966.240275) vcan0 17C#0000000010000030
(1585900966.240277) vcan0 18E#00007A
(1585900966.240279) vcan0 294#040B0002CF5A002C
(1585900966.240281) vcan0 21E#03E8374522062F
(1585900966.241452) vcan0 183#0000000B0000103D
(1585900966.242605) vcan0 143#6B6B00FF
(1585900966.243758) vcan0 095#800007F400000026
(1585900966.244942) vcan0 039#002A
(1585900966.246308) vcan0 166#D0320036
(1585900966.247547) vcan0 158#0000000000000037
(1585900966.247562) vcan0 161#000005500108003A
(1585900966.248634) vcan0 191#010010A1410029
(1585900966.248645) vcan0 164#0000C01AA8000022
(1585900966.248647) vcan0 133#0000000089
(1585900966.248648) vcan0 136#000200000000000C
(1585900966.248650) vcan0 13A#000000000000000A
(1585900966.249713) vcan0 13F#0000000500000000
(1585900966.249719) vcan0 17C#0000000010000003
(1585900966.249720) vcan0 18E#00004D
(1585900966.249722) vcan0 1CF#80050000000F
(1585900966.249724) vcan0 1DC#0200000C
(1585900966.250786) vcan0 183#0000000800001003
(1585900966.252467) vcan0 143#6B6B00C2
(1585900966.253805) vcan0 095#800007F400000035
(1585900966.255289) vcan0 244#0000000122
(1585900966.255359) vcan0 1A4#000000080000002F
(1585900966.255367) vcan0 1AA#7FFF00000000682F
(1585900966.255369) vcan0 1B0#000F0000000166
(1585900966.255371) vcan0 1D0#000000000000000A
(1585900966.256725) vcan0 166#D0320009
(1585900966.258165) vcan0 158#000000000000000A
(1585900966.258180) vcan0 161#000005500108000D
(1585900966.258182) vcan0 191#010010A1410038
(1585900966.258184) vcan0 164#0000C01AA8000031
(1585900966.259380) vcan0 133#0000000098
(1585900966.259395) vcan0 136#000200000000001B
(1585900966.259397) vcan0 039#0039
(1585900966.259399) vcan0 13A#0000000000000019
(1585900966.259401) vcan0 13F#000000050000001F
(1585900966.259403) vcan0 17C#0000000010000012
(1585900966.260666) vcan0 18E#00005C
(1585900966.260680) vcan0 183#0000000D0000101D
(1585900966.261827) vcan0 143#6B6B00D1
(1585900966.264313) vcan0 095#800007F400000008
(1585900966.265736) vcan0 244#0000000166
(1585900966.266451) vcan0 166#D0320018
(1585900966.267521) vcan0 158#0000000000000019
(1585900966.267527) vcan0 161#000005500108001C
(1585900966.268598) vcan0 191#010010A141000B
(1585900966.268605) vcan0 164#0000C01AA8000004
(1585900966.268607) vcan0 133#00000000A7
(1585900966.268609) vcan0 136#000200000000002A
(1585900966.270066) vcan0 13A#0000000000000028
(1585900966.270072) vcan0 13F#000000050000002E
(1585900966.270074) vcan0 17C#0000000010000021
(1585900966.270076) vcan0 18E#00006B
(1585900966.270078) vcan0 1CF#80050000001E
(1585900966.270080) vcan0 1DC#0200001B
(1585900966.271204) vcan0 183#0000000900001020
(1585900966.272329) vcan0 143#6B6B00E0
(1585900966.272336) vcan0 333#0000000000002D
(1585900966.273459) vcan0 039#000C
(1585900966.273466) vcan0 095#800007F400000017
(1585900966.274585) vcan0 1A4#000000080000003E
(1585900966.274603) vcan0 1AA#7FFF00000000673F
(1585900966.274606) vcan0 1B0#000F0000000175
(1585900966.275731) vcan0 1D0#000000000000000A
(1585900966.276940) vcan0 166#D0320027
(1585900966.278175) vcan0 158#0000000000000028
(1585900966.278198) vcan0 161#000005500108002B
(1585900966.278200) vcan0 191#010010A141001A
(1585900966.278202) vcan0 18E#00007A
(1585900966.278204) vcan0 133#00000000B6
(1585900966.279373) vcan0 136#0002000000000039
(1585900966.279386) vcan0 13A#0000000000000037
(1585900966.279388) vcan0 13F#000000050000003D
(1585900966.279390) vcan0 164#0000C01AA8000013
(1585900966.279391) vcan0 17C#0000000010000030
(1585900966.280467) vcan0 294#040B0002CF5A003B
(1585900966.280484) vcan0 305#8035
(1585900966.280486) vcan0 21E#03E8374522063E
(1585900966.281082) vcan0 244#00000001ED
(1585900966.281600) vcan0 183#0000000600001032
(1585900966.281606) vcan0 143#6B6B00FF
(1585900966.283732) vcan0 095#800007F400000026
(1585900966.286996) vcan0 166#D0320036
(1585900966.287010) vcan0 039#001B
(1585900966.288341) vcan0 158#0000000000000037
(1585900966.288356) vcan0 161#000005500108003A
(1585900966.288358) vcan0 191#010010A1410029
(1585900966.288360) vcan0 164#0000C01AA8000022
(1585900966.288362) vcan0 133#0000000089
(1585900966.290384) vcan0 136#000200000000000C
(1585900966.290398) vcan0 13A#000000000000000A
(1585900966.290400) vcan0 13F#0000000500000000
(1585900966.290402) vcan0 17C#0000000010000003
(1585900966.290404) vcan0 18E#00004D
(1585900966.290405) vcan0 1CF#80050000002D
(1585900966.290407) vcan0 1DC#0200002A
(1585900966.290408) vcan0 320#000021
(1585900966.290410) vcan0 183#0000000C0000100F
(1585900966.290412) vcan0 324#7465000000000E29
(1585900966.291490) vcan0 37C#FD00FD00097F0029
(1585900966.292577) vcan0 143#6B6B00C2
(1585900966.293669) vcan0 095#800007F400000035
(1585900966.294815) vcan0 1A4#0000000800000001
(1585900966.294827) vcan0 1AA#7FFF000000006702
(1585900966.294829) vcan0 1B0#000F0000000148
(1585900966.294831) vcan0 1D0#000000000000000A
(1585900966.296060) vcan0 166#D0320009
(1585900966.296717) vcan0 244#0000000137
(1585900966.297279) vcan0 158#000000000000000A
(1585900966.298353) vcan0 161#000005500108000D
(1585900966.298362) vcan0 191#010010A1410038
(1585900966.298364) vcan0 18E#00005C
(1585900966.298365) vcan0 133#0000000098
(1585900966.299428) vcan0 136#000200000000001B
(1585900966.299434) vcan0 13A#0000000000000019
(1585900966.299436) vcan0 13F#000000050000001F
(1585900966.299437) vcan0 164#0000C01AA8000031
(1585900966.299439) vcan0 17C#0000000010000012
(1585900966.302107) vcan0 183#0000000900001011
(1585900966.302113) vcan0 143#6B6B00D1
(1585900966.303523) vcan0 095#800007F400000008
(1585900966.306751) vcan0 166#D0320018
(1585900966.308099) vcan0 158#0000000000000019
(1585900966.308113) vcan0 161#000005500108001C
(1585900966.308115) vcan0 039#002A
(1585900966.308117) vcan0 164#0000C01AA8000004
(1585900966.308119) vcan0 191#010010A141000B
(1585900966.309220) vcan0 133#00000000A7
(1585900966.309234) vcan0 136#000200000000002A
(1585900966.309236) vcan0 13A#0000000000000028
(1585900966.309238) vcan0 13F#000000050000002E
(1585900966.310465) vcan0 17C#0000000010000021
(1585900966.310479) vcan0 18E#00006B
(1585900966.310481) vcan0 1CF#80050000003C
(1585900966.310483) vcan0 1DC#02000039
(1585900966.310485) vcan0 183#0000000E0000102B
(1585900966.311588) vcan0 143#6B6B00E0
(1585900966.312601) vcan0 244#000000012A
(1585900966.313753) vcan0 095#800007F400000017
(1585900966.314824) vcan0 1A4#0000000800000010
(1585900966.314830) vcan0 1AA#7FFF000000006810
(1585900966.314833) vcan0 1B0#000F0000000157
(1585900966.314834) vcan0 1D0#000000000000000A
(1585900966.317936) vcan0 166#D0320027
(1585900966.317942) vcan0 158#0000000000000028
(1585900966.317945) vcan0 161#000005500108002B
(1585900966.317946) vcan0 191#010010A141001A
(1585900966.319049) vcan0 164#0000C01AA8000013
(1585900966.319063) vcan0 133#00000000B6
(1585900966.319065) vcan0 136#0002000000000039
(1585900966.319067) vcan0 13A#0000000000000037
(1585900966.319069) vcan0 13F#000000050000003D
(1585900966.320413) vcan0 17C#0000000010000030
(1585900966.320428) vcan0 18E#00007A
(1585900966.320430) vcan0 294#040B0002CF5A000E
(1585900966.320432) vcan0 21E#03E83745220601
(1585900966.320434) vcan0 309#00000000000000B1
(1585900966.321519) vcan0 183#0000000A0000103E
(1585900966.321534) vcan0 039#0039
(1585900966.321536) vcan0 143#6B6B00FF
(1585900966.323770) vcan0 095#800007F400000026
(1585900966.327107) vcan0 166#D0320036
(1585900966.328369) vcan0 244#00000001EB
(1585900966.328424) vcan0 158#0000000000000037
(1585900966.328428) vcan0 161#000005500108003A
(1585900966.328436) vcan0 191#010010A1410029
(1585900966.328438) vcan0 164#0000C01AA8000022
(1585900966.328439) vcan0 133#0000000089
(1585900966.328441) vcan0 136#000200000000000C
(1585900966.329687) vcan0 13A#000000000000000A
(1585900966.329697) vcan0 13F#0000000500000000
(1585900966.329699) vcan0 17C#0000000010000003
(1585900966.329701) vcan0 18E#00004D
(1585900966.329702) vcan0 1CF#80050000000F
(1585900966.329704) vcan0 1DC#0200000C
(1585900966.330775) vcan0 183#0000000700001004
(1585900966.331866) vcan0 143#6B6B00C2
(1585900966.334001) vcan0 095#800007F400000035
(1585900966.334008) vcan0 1A4#000000080000002F
(1585900966.335458) vcan0 1AA#7FFF00000000682F
(1585900966.335464) vcan0 1B0#000F0000000166
(1585900966.335466) vcan0 039#000C
(1585900966.335468) vcan0 1D0#000000000000000A
(1585900966.336573) vcan0 166#D0320009
(1585900966.337931) vcan0 158#000000000000000A
(1585900966.337945) vcan0 161#000005500108000D
(1585900966.337947) vcan0 191#010010A1410038
(1585900966.338808) vcan0 244#0000000153
(1585900966.339356) vcan0 18E#00005C
(1585900966.339366) vcan0 133#0000000098
(1585900966.339368) vcan0 136#000200000000001B
(1585900966.339369) vcan0 13A#0000000000000019
(1585900966.339371) vcan0 13F#000000050000001F
(1585900966.339373) vcan0 164#0000C01AA8000031
(1585900966.340480) vcan0 17C#0000000010000012
(1585900966.341596) vcan0 183#0000000D0000101D
(1585900966.341611) vcan0 143#6B6B00D1
(1585900966.343899) vcan0 095#800007F400000008
(1585900966.346416) vcan0 166#D0320018
(1585900966.347502) vcan0 158#0000000000000019
(1585900966.347516) vcan0 161#000005500108001C
(1585900966.348585) vcan0 191#010010A141000B
(1585900966.348593) vcan0 164#0000C01AA8000004
(1585900966.348595) vcan0 133#00000000A7
(1585900966.348597) vcan0 136#000200000000002A
(1585900966.349660) vcan0 13A#0000000000000028
(1585900966.349665) vcan0 13F#000000050000002E
(1585900966.349667) vcan0 17C#0000000010000021
(1585900966.349669) vcan0 18E#00006B
(1585900966.349671) vcan0 1CF#80050000001E
(1585900966.349672) vcan0 1DC#0200001B
(1585900966.350738) vcan0 183#0000000900001020
(1585900966.350744) vcan0 039#001B
(1585900966.351807) vcan0 143#6B6B00E0
(1585900966.354146) vcan0 244#000000014B
(1585900966.354222) vcan0 095#800007F400000017
(1585900966.354230) vcan0 1A4#000000080000003E
(1585900966.355714) vcan0 1AA#7FFF00000000673F
(1585900966.355727) vcan0 1B0#000F0000000175
(1585900966.355729) vcan0 1D0#000000000000000A
(1585900966.357082) vcan0 166#D0320027
(1585900966.358329) vcan0 158#0000000000000028
(1585900966.358343) vcan0 161#000005500108002B
(1585900966.358345) vcan0 191#010010A141001A
(1585900966.358347) vcan0 164#0000C01AA8000013
(1585900966.358349) vcan0 133#00000000B6
(1585900966.359430) vcan0 136#0002000000000039
(1585900966.359444) vcan0 13A#0000000000000037
(1585900966.359446) vcan0 13F#000000050000003D
(1585900966.359448) vcan0 17C#0000000010000030
(1585900966.359450) vcan0 18E#00007A
(1585900966.360780) vcan0 294#040B0002CF5A001D
(1585900966.360795) vcan0 21E#03E83745220610
(1585900966.360797) vcan0 183#0000000600001032
(1585900966.362089) vcan0 143#6B6B00FF
(1585900966.363476) vcan0 095#800007F400000026
(1585900966.366679) vcan0 166#D0320036
(1585900966.367765) vcan0 158#0000000000000037
(1585900966.367771) vcan0 161#000005500108003A
(1585900966.367773) vcan0 191#010010A1410029
(1585900966.368836) vcan0 164#0000C01AA8000022
(1585900966.368842) vcan0 133#0000000089
(1585900966.368844) vcan0 136#000200000000000C
(1585900966.368846) vcan0 13A#000000000000000A
(1585900966.369483) vcan0 244#00000001DF
(1585900966.369985) vcan0 13F#0000000500000000
(1585900966.369990) vcan0 17C#0000000010000003
(1585900966.369992) vcan0 18E#00004D
(1585900966.369994) vcan0 1CF#80050000002D
(1585900966.369995) vcan0 1DC#0200002A
(1585900966.371058) vcan0 183#0000000C0000100F
(1585900966.371064) vcan0 039#002A
(1585900966.372127) vcan0 143#6B6B00C2
(1585900966.372133) vcan0 333#0000000000003C
(1585900966.374259) vcan0 095#800007F400000035
(1585900966.374266) vcan0 1A4#0000000800000001
(1585900966.374268) vcan0 1AA#7FFF000000006702
(1585900966.375332) vcan0 1B0#000F0000000148
(1585900966.375339) vcan0 1D0#000000000000000A
(1585900966.376402) vcan0 166#D0320009
(1585900966.377468) vcan0 158#000000000000000A
(1585900966.379641) vcan0 244#000000012A
(1585900966.379651) vcan0 161#000005500108000D
(1585900966.379660) vcan0 191#010010A1410038
(1585900966.379662) vcan0 18E#00005C
(1585900966.379664) vcan0 133#0000000098
(1585900966.379666) vcan0 136#000200000000001B
(1585900966.379668) vcan0 13A#0000000000000019
(1585900966.379669) vcan0 13F#000000050000001F
(1585900966.379671) vcan0 164#0000C01AA8000031
(1585900966.379672) vcan0 17C#0000000010000012
(1585900966.380736) vcan0 183#0000000900001011
(1585900966.381809) vcan0 143#6B6B00D1
(1585900966.382888) vcan0 305#8008
(1585900966.383969) vcan0 095#800007F400000008
(1585900966.386100) vcan0 166#D0320018
(1585900966.388230) vcan0 158#0000000000000019
(1585900966.388236) vcan0 161#000005500108001C
(1585900966.388238) vcan0 191#010090A1410003
(1585900966.388239) vcan0 164#0000C01AA8000004
(1585900966.388241) vcan0 133#00000000A7
(1585900966.389547) vcan0 136#000200000000002A
(1585900966.389561) vcan0 13A#0000000000000028
(1585900966.389563) vcan0 13F#000000050000002E
(1585900966.389565) vcan0 17C#0000000010000021
(1585900966.389567) vcan0 18E#00006B
(1585900966.389569) vcan0 1CF#80050000003C
(1585900966.390671) vcan0 1DC#02000039
(1585900966.390686) vcan0 320#000030
(1585900966.390688) vcan0 324#7465000000000E38
(1585900966.390690) vcan0 183#0000000E0000102B
(1585900966.390691) vcan0 37C#FD00FD00097F0038
(1585900966.390693) vcan0 039#0039
(1585900966.392049) vcan0 143#6B6B00E0
(1585900966.393311) vcan0 095#800007F400000017
(1585900966.394469) vcan0 1A4#0000000800000010
(1585900966.394485) vcan0 1AA#7FFF000000006810
(1585900966.394488) vcan0 1B0#000F0000000157
(1585900966.394943) vcan0 244#0000000175
(1585900966.395552) vcan0 1D0#000000000000000A
(1585900966.396660) vcan0 166#D0320027
(1585900966.397743) vcan0 158#0000000000000028
(1585900966.397773) vcan0 161#000005500108002B
(1585900966.397775) vcan0 191#010090A1410012
(1585900966.398844) vcan0 133#00000000B6
(1585900966.398853) vcan0 136#0002000000000039
(1585900966.398855) vcan0 13A#0000000000000037
(1585900966.398856) vcan0 13F#000000050000003D
(1585900966.399920) vcan0 164#0000C01AA8000013
(1585900966.399925) vcan0 17C#0000000010000030
(1585900966.399927) vcan0 18E#00007A
(1585900966.399929) vcan0 294#040B0002CF5A002C
(1585900966.400992) vcan0 21E#03E8374522062F
(1585900966.400998) vcan0 183#0000000A0000103E
(1585900966.402476) vcan0 143#6B6B00FF
(1585900966.403584) vcan0 095#800007F400000026
(1585900966.404702) vcan0 039#000C
(1585900966.406140) vcan0 166#D0320036
(1585900966.407512) vcan0 158#0000000000000037
(1585900966.407526) vcan0 161#000005500108003A
(1585900966.408647) vcan0 191#010090A1410021
(1585900966.408661) vcan0 164#0000C01AA8000022
(1585900966.408664) vcan0 133#0000000089
(1585900966.408666) vcan0 136#000200000000000C
(1585900966.408667) vcan0 13A#000000000000000A
(1585900966.409966) vcan0 13F#0000000500000000
(1585900966.409981) vcan0 17C#0000000010000003
(1585900966.409983) vcan0 18E#00004D
(1585900966.409985) vcan0 1CF#80050000000F
(1585900966.409987) vcan0 1DC#0200000C
(1585900966.410691) vcan0 244#0000000109
(1585900966.411262) vcan0 183#0000000F0000100C
(1585900966.412484) vcan0 143#6B6B00C2
(1585900966.413604) vcan0 095#800007F400000035
(1585900966.414688) vcan0 1A4#000000080000002F
(1585900966.414698) vcan0 1AA#7FFF00000000682F
(1585900966.414701) vcan0 1B0#000F0000000166
(1585900966.415783) vcan0 1D0#000000000000000A
(1585900966.416850) vcan0 166#D0320009
(1585900966.418477) vcan0 158#000000000000000A
(1585900966.418483) vcan0 161#000005500108000D
(1585900966.418485) vcan0 191#010090A1410030
(1585900966.418487) vcan0 18E#00005C
(1585900966.418488) vcan0 133#0000000098
(1585900966.418490) vcan0 136#000200000000001B
(1585900966.419594) vcan0 13A#0000000000000019
(1585900966.419608) vcan0 13F#000000050000001F
(1585900966.419610) vcan0 164#0000C01AA8000031
(1585900966.419612) vcan0 17C#0000000010000012
(1585900966.419614) vcan0 039#001B
(1585900966.420938) vcan0 309#0000000000000084
(1585900966.420951) vcan0 183#0000000B0000101F
(1585900966.422100) vcan0 143#6B6B00D1
(1585900966.424341) vcan0 095#800007F400000008
(1585900966.426119) vcan0 244#000000018C
(1585900966.426740) vcan0 166#D0320018
(1585900966.427844) vcan0 158#0000000000000019
(1585900966.427851) vcan0 161#000005500108001C
(1585900966.427853) vcan0 191#010090A1410003
(1585900966.428926) vcan0 164#0000C01AA8000004
(1585900966.428932) vcan0 133#00000000A7
(1585900966.428938) vcan0 136#000200000000002A
(1585900966.428940) vcan0 13A#0000000000000028
(1585900966.428942) vcan0 13F#000000050000002E
(1585900966.430066) vcan0 17C#0000000010000021
(1585900966.430073) vcan0 18E#00006B
(1585900966.430075) vcan0 1CF#80050000001E
(1585900966.430077) vcan0 1DC#0200001B
(1585900966.431141) vcan0 183#0000000800001021
(1585900966.432209) vcan0 143#6B6B00E0
(1585900966.435189) vcan0 095#800007F400000017
(1585900966.435210) vcan0 039#002A
(1585900966.435212) vcan0 1A4#000000080000003E
(1585900966.435213) vcan0 1AA#7FFF00000000673F
(1585900966.435215) vcan0 1B0#000F0000000175
(1585900966.435217) vcan0 1D0#000000000000000A
(1585900966.436471) vcan0 166#D0320027
(1585900966.437587) vcan0 158#0000000000000028
(1585900966.437601) vcan0 161#000005500108002B
(1585900966.438899) vcan0 191#010090A1410012
(1585900966.438913) vcan0 133#00000000B6
(1585900966.438915) vcan0 136#0002000000000039
(1585900966.438917) vcan0 13A#0000000000000037
(1585900966.438919) vcan0 13F#000000050000003D
(1585900966.440022) vcan0 164#0000C01AA8000013
(1585900966.440037) vcan0 17C#0000000010000030
(1585900966.440039) vcan0 18E#00007A
(1585900966.440041) vcan0 294#040B0002CF5A003B
(1585900966.440043) vcan0 21E#03E8374522063E
(1585900966.441147) vcan0 183#0000000600001032
(1585900966.441778) vcan0 244#000000010E
(1585900966.442383) vcan0 143#6B6B00FF
(1585900966.443477) vcan0 095#800007F400000026
(1585900966.447002) vcan0 166#D0320036
(1585900966.448084) vcan0 158#0000000000000037
(1585900966.448096) vcan0 161#000005500108003A
(1585900966.448098) vcan0 039#0039
(1585900966.448100) vcan0 191#010090A1410021
(1585900966.448102) vcan0 164#0000C01AA8000022
(1585900966.449165) vcan0 133#0000000089
(1585900966.449171) vcan0 136#000200000000000C
(1585900966.449173) vcan0 13A#000000000000000A
(1585900966.449175) vcan0 13F#0000000500000000
(1585900966.450256) vcan0 17C#0000000010000003
(1585900966.450263) vcan0 18E#00004D
(1585900966.450265) vcan0 1CF#80050000002D
(1585900966.450267) vcan0 1DC#0200002A
(1585900966.450268) vcan0 183#0000000400001007
(1585900966.452018) vcan0 143#6B6B00C2
(1585900966.454418) vcan0 095#800007F400000035
(1585900966.454432) vcan0 1A4#0000000800000001
(1585900966.454434) vcan0 1AA#7FFF000000006702
(1585900966.455537) vcan0 1B0#000F0000000148
(1585900966.455551) vcan0 1D0#000000000000000A
(1585900966.456656) vcan0 166#D0320009
(1585900966.457384) vcan0 244#000000011A
(1585900966.457938) vcan0 158#000000000000000A
(1585900966.457947) vcan0 161#000005500108000D
(1585900966.457949) vcan0 191#010090A1410030
(1585900966.459161) vcan0 164#0000C01AA8000031
(1585900966.459176) vcan0 133#0000000098
(1585900966.459179) vcan0 136#000200000000001B
(1585900966.459181) vcan0 13A#0000000000000019
(1585900966.459182) vcan0 13F#000000050000001F
(1585900966.460476) vcan0 17C#0000000010000012
(1585900966.460491) vcan0 18E#00005C
(1585900966.461595) vcan0 183#0000000300001017
(1585900966.461610) vcan0 143#6B6B00D1
(1585900966.462689) vcan0 039#000C
(1585900966.463973) vcan0 095#800007F400000008
(1585900966.466122) vcan0 166#D0320018
(1585900966.467591) vcan0 244#000000018D
(1585900966.468271) vcan0 158#0000000000000019
(1585900966.468276) vcan0 161#000005500108001C
(1585900966.468278) vcan0 191#010090A1410003
(1585900966.468280) vcan0 164#0000C01AA8000004
(1585900966.468282) vcan0 133#00000000A7
(1585900966.470234) vcan0 136#000200000000002A
(1585900966.470241) vcan0 13A#0000000000000028
(1585900966.470243) vcan0 13F#000000050000002E
(1585900966.470257) vcan0 17C#0000000010000021
(1585900966.470260) vcan0 18E#00006B
(1585900966.470262) vcan0 1CF#80050000003C
(1585900966.470264) vcan0 1DC#02000039
(1585900966.470265) vcan0 183#0000000A0000102F
(1585900966.471486) vcan0 143#6B6B00E0
(1585900966.472602) vcan0 333#0000000000000F
(1585900966.473902) vcan0 095#800007F400000017
(1585900966.475016) vcan0 1A4#0000000800000010
(1585900966.475031) vcan0 1AA#7FFF000000006810
(1585900966.475033) vcan0 1B0#000F0000000157
(1585900966.475035) vcan0 1D0#000000000000000A
(1585900966.476138) vcan0 166#D0320027
(1585900966.477419) vcan0 158#0000000000000028
(1585900966.478538) vcan0 161#000005500108002B
(1585900966.478553) vcan0 191#010090A1410012
(1585900966.478555) vcan0 133#00000000B6
(1585900966.478557) vcan0 136#0002000000000039
(1585900966.478559) vcan0 13A#0000000000000037
(1585900966.479681) vcan0 13F#000000050000003D
(1585900966.479688) vcan0 164#0000C01AA8000013
(1585900966.479690) vcan0 17C#0000000010000030
(1585900966.479692) vcan0 18E#00007A
(1585900966.479694) vcan0 294#040B0002CF5A000E
(1585900966.480846) vcan0 21E#03E83745220601
(1585900966.480853) vcan0 039#001B
(1585900966.480856) vcan0 183#0000000700001031
(1585900966.481919) vcan0 143#6B6B00FF
(1585900966.482942) vcan0 244#00000001C9
(1585900966.484058) vcan0 095#800007F400000026
(1585900966.486400) vcan0 166#D0320036
(1585900966.487516) vcan0 305#8017
(1585900966.487532) vcan0 158#0000000000000037
(1585900966.487535) vcan0 161#000005500108003A
(1585900966.488793) vcan0 191#010090A1410021
(1585900966.488806) vcan0 164#0000C01AA8000022
(1585900966.488808) vcan0 133#0000000089
(1585900966.488810) vcan0 136#000200000000000C
(1585900966.488812) vcan0 13A#000000000000000A
(1585900966.490060) vcan0 13F#0000000500000000
(1585900966.490074) vcan0 17C#0000000010000003
(1585900966.490076) vcan0 18E#00004D
(1585900966.490078) vcan0 1CF#80050000000F
(1585900966.490080) vcan0 1DC#0200000C
(1585900966.490082) vcan0 320#000003
(1585900966.491371) vcan0 324#7465000000000E0B
(1585900966.491385) vcan0 183#0000000D0000100E
(1585900966.491387) vcan0 37C#FD00FD00097F000B
(1585900966.491389) vcan0 40C#033133383439000D
(1585900966.491391) vcan0 454#23EF09
(1585900966.492528) vcan0 143#6B6B00C2
(1585900966.493621) vcan0 095#800007F400000035
(1585900966.494798) vcan0 1A4#000000080000002F
(1585900966.494811) vcan0 1AA#7FFF00000000682F
(1585900966.494813) vcan0 1B0#000F0000000166
(1585900966.494815) vcan0 039#002A
(1585900966.495973) vcan0 1D0#000000000000000A
(1585900966.497091) vcan0 166#D0320009
(1585900966.498259) vcan0 158#000000000000000A
(1585900966.498276) vcan0 161#000005500108000D
(1585900966.498278) vcan0 191#010090A1410030
(1585900966.498280) vcan0 18E#00005C
(1585900966.498282) vcan0 133#0000000098
(1585900966.498504) vcan0 244#00000001A1
(1585900966.499348) vcan0 136#000200000000001B
(1585900966.499356) vcan0 13A#0000000000000019
(1585900966.499358) vcan0 13F#000000050000001F
(1585900966.499360) vcan0 164#0000C01AA8000031
(1585900966.499362) vcan0 17C#0000000010000012
(1585900966.501484) vcan0 183#0000000900001011
(1585900966.501491) vcan0 143#6B6B00D1
(1585900966.503839) vcan0 095#800007F400000008
(1585900966.506206) vcan0 166#D0320018
(1585900966.507476) vcan0 158#0000000000000019
(1585900966.507491) vcan0 161#000005500108001C
(1585900966.508596) vcan0 191#010090A1410003
(1585900966.508611) vcan0 164#0000C01AA8000004
(1585900966.508614) vcan0 133#00000000A7
(1585900966.508616) vcan0 039#0039
(1585900966.508618) vcan0 136#000200000000002A
(1585900966.509895) vcan0 13A#0000000000000028
(1585900966.509910) vcan0 13F#000000050000002E
(1585900966.509913) vcan0 17C#0000000010000021
(1585900966.509914) vcan0 18E#00006B
(1585900966.509916) vcan0 1CF#80050000001E
(1585900966.509918) vcan0 1DC#0200001B
(1585900966.511025) vcan0 183#0000000600001023
(1585900966.512144) vcan0 143#6B6B00E0
(1585900966.513440) vcan0 095#800007F400000017
(1585900966.514054) vcan0 244#0000000162
(1585900966.514645) vcan0 1A4#000000080000003E
(1585900966.514655) vcan0 1AA#7FFF00000000673F
(1585900966.514657) vcan0 1B0#000F0000000175
(1585900966.515724) vcan0 1D0#000000000000000A
(1585900966.516795) vcan0 166#D0320027
(1585900966.517863) vcan0 158#0000000000000028
(1585900966.517869) vcan0 161#000005500108002B
(1585900966.517871) vcan0 191#010090A1410012
(1585900966.519881) vcan0 164#0000C01AA8000013
(1585900966.519888) vcan0 133#00000000B6
(1585900966.519890) vcan0 136#0002000000000039
(1585900966.519891) vcan0 13A#0000000000000037
(1585900966.519893) vcan0 13F#000000050000003D
(1585900966.519895) vcan0 17C#0000000010000030
(1585900966.519896) vcan0 18E#00007A
(1585900966.519898) vcan0 294#040B0002CF5A001D
(1585900966.519900) vcan0 21E#03E83745220610
(1585900966.521003) vcan0 309#0000000000000093
(1585900966.521019) vcan0 428#01040000521C10
(1585900966.521021) vcan0 405#000004000000001A
(1585900966.521023) vcan0 183#0000000C0000103C
(1585900966.522128) vcan0 143#6B6B00FF
(1585900966.523423) vcan0 095#800007F400000026
(1585900966.524538) vcan0 039#000C
(1585900966.525272) vcan0 244#000000017E
(1585900966.526972) vcan0 166#D0320036
(1585900966.528089) vcan0 158#0000000000000037
(1585900966.528103) vcan0 161#000005500108003A
(1585900966.528111) vcan0 191#010090A1410021
(1585900966.528113) vcan0 164#0000C01AA8000022
(1585900966.528115) vcan0 133#0000000089
(1585900966.529485) vcan0 136#000200000000000C
(1585900966.529500) vcan0 13A#000000000000000A
(1585900966.529502) vcan0 13F#0000000500000000
(1585900966.529504) vcan0 17C#0000000010000003
(1585900966.529506) vcan0 18E#00004D
(1585900966.529508) vcan0 1CF#80050000002D
(1585900966.530580) vcan0 1DC#0200002A
(1585900966.530595) vcan0 183#0000000900001002
(1585900966.531660) vcan0 143#6B6B00C2
(1585900966.533787) vcan0 095#800007F400000035
(1585900966.535466) vcan0 1A4#0000000800000001
(1585900966.535474) vcan0 1AA#7FFF000000006702
(1585900966.535476) vcan0 1B0#000F0000000148
(1585900966.535478) vcan0 1D0#000000000000000A
(1585900966.536556) vcan0 166#D0320009
(1585900966.537780) vcan0 158#000000000000000A
(1585900966.537787) vcan0 161#000005500108000D
(1585900966.537789) vcan0 039#001B
(1585900966.538933) vcan0 191#010090A1410030
(1585900966.538944) vcan0 164#0000C01AA8000031
(1585900966.538946) vcan0 133#0000000098
(1585900966.538948) vcan0 136#000200000000001B
(1585900966.538949) vcan0 13A#0000000000000019
(1585900966.540058) vcan0 13F#000000050000001F
(1585900966.540074) vcan0 17C#0000000010000012
(1585900966.540076) vcan0 18E#00005C
(1585900966.540604) vcan0 244#00000001F1
(1585900966.541146) vcan0 183#0000000600001014
(1585900966.542298) vcan0 143#6B6B00D1
(1585900966.543429) vcan0 095#800007F400000008
(1585900966.546937) vcan0 166#D0320018
(1585900966.548022) vcan0 158#0000000000000019
(1585900966.548037) vcan0 161#000005500108001C
(1585900966.548039) vcan0 191#010090A1410003
(1585900966.548041) vcan0 164#0000C01AA8000004
(1585900966.549109) vcan0 133#00000000A7
(1585900966.549117) vcan0 136#000200000000002A
(1585900966.549119) vcan0 13A#0000000000000028
(1585900966.549121) vcan0 13F#000000050000002E
(1585900966.549123) vcan0 17C#0000000010000021
(1585900966.550186) vcan0 18E#00006B
(1585900966.550192) vcan0 1CF#80050000003C
(1585900966.550195) vcan0 1DC#02000039
(1585900966.550196) vcan0 183#0000000400001025
(1585900966.552621) vcan0 143#6B6B00E0
(1585900966.552627) vcan0 039#002A
(1585900966.553922) vcan0 095#800007F400000017
(1585900966.555036) vcan0 1A4#0000000800000010
(1585900966.555051) vcan0 1AA#7FFF000000006810
(1585900966.555053) vcan0 1B0#000F0000000157
(1585900966.555055) vcan0 1D0#000000000000000A
(1585900966.556006) vcan0 244#000000015B
(1585900966.556566) vcan0 166#D0320027
(1585900966.557862) vcan0 158#0000000000000028
(1585900966.557877) vcan0 161#000005500108002B
(1585900966.557879) vcan0 191#010090A1410012
(1585900966.558981) vcan0 164#0000C01AA8000013
(1585900966.558996) vcan0 133#00000000B6
(1585900966.558998) vcan0 136#0002000000000039
(1585900966.559000) vcan0 13A#0000000000000037
(1585900966.559002) vcan0 13F#000000050000003D
(1585900966.560118) vcan0 17C#0000000010000030
(1585900966.560133) vcan0 18E#00007A
(1585900966.560135) vcan0 294#040B0002CF5A002C
(1585900966.560137) vcan0 21E#03E8374522062F
(1585900966.561218) vcan0 183#0000000300001035
(1585900966.562470) vcan0 143#6B6B00FF
(1585900966.563587) vcan0 095#800007F400000026
(1585900966.566789) vcan0 166#D0320036
(1585900966.566801) vcan0 039#0039
(1585900966.568965) vcan0 158#0000000000000037
(1585900966.568972) vcan0 161#000005500108003A
(1585900966.568974) vcan0 191#010090A1410021
(1585900966.568976) vcan0 164#0000C01AA8000022
(1585900966.568978) vcan0 133#0000000089
(1585900966.568979) vcan0 136#000200000000000C
(1585900966.568981) vcan0 13A#000000000000000A
(1585900966.568983) vcan0 13F#0000000500000000
(1585900966.570086) vcan0 17C#0000000010000003
(1585900966.570100) vcan0 18E#00004D
(1585900966.570103) vcan0 1CF#80050000000F
(1585900966.570105) vcan0 1DC#0200000C
(1585900966.571425) vcan0 244#0000000189
(1585900966.571496) vcan0 183#0000000A00001001
(1585900966.571504) vcan0 143#6B6B00C2
(1585900966.572793) vcan0 333#0000000000001E
(1585900966.574016) vcan0 095#800007F400000035
(1585900966.574030) vcan0 1A4#000000080000002F
(1585900966.575140) vcan0 1AA#7FFF00000000682F
(1585900966.575165) vcan0 1B0#000F0000000166
(1585900966.575168) vcan0 1D0#000000000000000A
(1585900966.576446) vcan0 166#D0320009
(1585900966.577562) vcan0 158#000000000000000A
(1585900966.577576) vcan0 161#000005500108000D
(1585900966.578863) vcan0 191#010090A1410030
(1585900966.578878) vcan0 133#0000000098
(1585900966.578880) vcan0 136#000200000000001B
(1585900966.578882) vcan0 13A#0000000000000019
(1585900966.578884) vcan0 13F#000000050000001F
(1585900966.579988) vcan0 164#0000C01AA8000031
(1585900966.580003) vcan0 17C#0000000010000012
(1585900966.580005) vcan0 18E#00005C
(1585900966.581076) vcan0 183#0000000700001013
(1585900966.581087) vcan0 039#000C
(1585900966.581606) vcan0 244#0000000150
(1585900966.582171) vcan0 143#6B6B00D1
(1585900966.584297) vcan0 095#800007F400000008
(1585900966.586224) vcan0 166#D0320018
(1585900966.587369) vcan0 158#0000000000000019
(1585900966.588638) vcan0 161#000005500108001C
(1585900966.588645) vcan0 191#010090A1410003
(1585900966.588647) vcan0 164#0000C01AA8000004
(1585900966.588649) vcan0 133#00000000A7
(1585900966.588650) vcan0 136#000200000000002A
(1585900966.589875) vcan0 13A#0000000000000028
(1585900966.589883) vcan0 13F#000000050000002E
(1585900966.589886) vcan0 17C#0000000010000021
(1585900966.589887) vcan0 18E#00006B
(1585900966.589889) vcan0 1CF#80050000001E
(1585900966.589891) vcan0 1DC#0200001B
(1585900966.589893) vcan0 320#000012
(1585900966.590982) vcan0 324#7465000000000E1A
(1585900966.590996) vcan0 183#0000000500001024
(1585900966.590998) vcan0 37C#FD00FD00097F001A
(1585900966.592078) vcan0 143#6B6B00E0
(1585900966.593381) vcan0 305#8026
(1585900966.593395) vcan0 095#800007F400000017
(1585900966.594500) vcan0 1A4#000000080000003E
(1585900966.594514) vcan0 1AA#7FFF00000000673F
(1585900966.595620) vcan0 1B0#000F0000000175
(1585900966.595635) vcan0 1D0#000000000000000A
(1585900966.596926) vcan0 166#D0320027
(1585900966.597098) vcan0 244#000000016A
(1585900966.598006) vcan0 158#0000000000000028
(1585900966.598015) vcan0 161#000005500108002B
(1585900966.598017) vcan0 191#010090A1410012
(1585900966.598019) vcan0 18E#00007A
(1585900966.599084) vcan0 133#00000000B6
(1585900966.599090) vcan0 136#0002000000000039
(1585900966.599093) vcan0 13A#0000000000000037
(1585900966.599094) vcan0 13F#000000050000003D
(1585900966.599096) vcan0 164#0000C01AA8000013
(1585900966.600161) vcan0 17C#0000000010000030
(1585900966.600167) vcan0 294#040B0002CF5A003B
(1585900966.600169) vcan0 21E#03E8374522063E
(1585900966.601191) vcan0 039#001B
(1585900966.601197) vcan0 183#0000000B0000103D
(1585900966.602957) vcan0 143#6B6B00FF
(1585900966.604065) vcan0 095#800007F400000026
(1585900966.606562) vcan0 166#D0320036
(1585900966.607861) vcan0 158#0000000000000037
(1585900966.607875) vcan0 161#000005500108003A
(1585900966.607878) vcan0 191#010090A1410021
(1585900966.608041) vcan0 244#00000001E0
(1585900966.608963) vcan0 164#0000C01AA8000022
(1585900966.608975) vcan0 133#0000000089
(1585900966.608977) vcan0 136#000200000000000C
(1585900966.608979) vcan0 13A#000000000000000A
(1585900966.608981) vcan0 13F#0000000500000000
(1585900966.610062) vcan0 17C#0000000010000003
(1585900966.610070) vcan0 18E#00004D
(1585900966.610072) vcan0 1CF#80050000002D
(1585900966.610074) vcan0 1DC#0200002A
(1585900966.611317) vcan0 183#0000000800001003
(1585900966.612472) vcan0 143#6B6B00C2
(1585900966.613771) vcan0 095#800007F400000035
(1585900966.614855) vcan0 1A4#0000000800000001
(1585900966.614866) vcan0 1AA#7FFF000000006702
(1585900966.614868) vcan0 1B0#000F0000000148
(1585900966.614870) vcan0 039#002A
(1585900966.614872) vcan0 1D0#000000000000000A
(1585900966.616995) vcan0 166#D0320009
(1585900966.618897) vcan0 158#000000000000000A
(1585900966.618903) vcan0 161#000005500108000D
(1585900966.618905) vcan0 191#010090A1410030
(1585900966.618907) vcan0 164#0000C01AA8000031
(1585900966.618909) vcan0 133#0000000098
(1585900966.618910) vcan0 136#000200000000001B
(1585900966.618912) vcan0 13A#0000000000000019
(1585900966.618936) vcan0 244#0000000124
(1585900966.620178) vcan0 13F#000000050000001F
(1585900966.620191) vcan0 17C#0000000010000012
(1585900966.620194) vcan0 18E#00005C
(1585900966.620196) vcan0 309#00000000000000A2
(1585900966.621485) vcan0 183#0000000D0000101D
(1585900966.621499) vcan0 143#6B6B00D1
(1585900966.623892) vcan0 095#800007F400000008
(1585900966.626117) vcan0 166#D0320018
(1585900966.627409) vcan0 158#0000000000000019
(1585900966.628526) vcan0 161#000005500108001C
(1585900966.628541) vcan0 191#010090A1410003
(1585900966.628543) vcan0 164#0000C01AA8000004
(1585900966.628545) vcan0 133#00000000A7
(1585900966.628552) vcan0 136#000200000000002A
(1585900966.629832) vcan0 13A#0000000000000028
(1585900966.629847) vcan0 13F#000000050000002E
(1585900966.629849) vcan0 17C#0000000010000021
(1585900966.629851) vcan0 18E#00006B
(1585900966.629853) vcan0 1CF#80050000003C
(1585900966.629855) vcan0 1DC#02000039
(1585900966.630928) vcan0 183#0000000900001020
(1585900966.630942) vcan0 039#0039
(1585900966.632015) vcan0 143#6B6B00E0
(1585900966.634150) vcan0 095#800007F400000017
(1585900966.634159) vcan0 1A4#0000000800000010
(1585900966.634400) vcan0 244#0000000115
(1585900966.635223) vcan0 1AA#7FFF000000006810
(1585900966.635229) vcan0 1B0#000F0000000157
(1585900966.635232) vcan0 1D0#000000000000000A
(1585900966.637107) vcan0 166#D0320027
(1585900966.638245) vcan0 158#0000000000000028
(1585900966.638265) vcan0 161#000005500108002B
(1585900966.638269) vcan0 191#010090A1410012
(1585900966.638271) vcan0 164#0000C01AA8000013
(1585900966.639560) vcan0 133#00000000B6
(1585900966.639569) vcan0 136#0002000000000039
(1585900966.639571) vcan0 13A#0000000000000037
(1585900966.639573) vcan0 13F#000000050000003D
(1585900966.639575) vcan0 17C#0000000010000030
(1585900966.639576) vcan0 18E#00007A
(1585900966.640816) vcan0 294#040B0002CF5A000E
(1585900966.640823) vcan0 21E#03E83745220601
(1585900966.640826) vcan0 183#0000000600001032
(1585900966.641917) vcan0 143#6B6B00FF
(1585900966.644114) vcan0 095#800007F400000026
(1585900966.644129) vcan0 5A1#9600000000006210
(1585900966.644843) vcan0 244#00000001CA
(1585900966.645400) vcan0 039#000C
(1585900966.646509) vcan0 166#D0320036
(1585900966.647590) vcan0 158#0000000000000037
(1585900966.647604) vcan0 161#000005500108003A
(1585900966.648675) vcan0 191#010090A1410021
(1585900966.648685) vcan0 164#0000C01AA8000022
(1585900966.648687) vcan0 133#0000000089
(1585900966.648689) vcan0 136#000200000000000C
(1585900966.648690) vcan0 13A#000000000000000A
(1585900966.649762) vcan0 13F#0000000500000000
(1585900966.649768) vcan0 17C#0000000010000003
(1585900966.649769) vcan0 18E#00004D
(1585900966.649771) vcan0 1CF#80050000000F
(1585900966.649773) vcan0 1DC#0200000C
(1585900966.650835) vcan0 183#0000000C0000100F
(1585900966.652443) vcan0 143#6B6B00C2
(1585900966.653742) vcan0 095#800007F400000035
(1585900966.655017) vcan0 1A4#000000080000002F
(1585900966.655030) vcan0 1AA#7FFF00000000682F
(1585900966.655032) vcan0 1B0#000F0000000166
(1585900966.655034) vcan0 1D0#000000000000000A
(1585900966.656138) vcan0 166#D0320009
(1585900966.657449) vcan0 158#000000000000000A
(1585900966.658565) vcan0 161#000005500108000D
(1585900966.658580) vcan0 191#010090A1410030
(1585900966.658582) vcan0 164#0000C01AA8000031
(1585900966.658584) vcan0 133#0000000098
(1585900966.658585) vcan0 136#000200000000001B
(1585900966.659832) vcan0 13A#0000000000000019
(1585900966.659844) vcan0 13F#000000050000001F
(1585900966.659846) vcan0 17C#0000000010000012
(1585900966.659848) vcan0 18E#00005C
(1585900966.659850) vcan0 039#001B
(1585900966.660095) vcan0 244#0000000172
(1585900966.660923) vcan0 183#0000000900001011
(1585900966.662040) vcan0 143#6B6B00D1
(1585900966.663355) vcan0 095#800007F400000008
(1585900966.666559) vcan0 166#D0320018
(1585900966.667634) vcan0 158#0000000000000019
(1585900966.667640) vcan0 161#000005500108001C
(1585900966.669152) vcan0 191#010090A1410003
(1585900966.669159) vcan0 164#0000C01AA8000004
(1585900966.669161) vcan0 133#00000000A7
(1585900966.669162) vcan0 136#000200000000002A
(1585900966.669164) vcan0 13A#0000000000000028
(1585900966.669166) vcan0 13F#000000050000002E
(1585900966.669167) vcan0 17C#0000000010000021
(1585900966.670460) vcan0 18E#00006B
(1585900966.670475) vcan0 1CF#80050000001E
(1585900966.670477) vcan0 1DC#0200001B
(1585900966.670479) vcan0 183#0000000600001023
(1585900966.671583) vcan0 143#6B6B00E0
(1585900966.672880) vcan0 333#0000000000002D
(1585900966.672894) vcan0 039#002A
(1585900966.673999) vcan0 095#800007F400000017
(1585900966.675129) vcan0 1A4#000000080000003E
(1585900966.675144) vcan0 1AA#7FFF00000000673F
(1585900966.675147) vcan0 1B0#000F0000000175
(1585900966.675149) vcan0 1D0#000000000000000A
(1585900966.675812) vcan0 244#0000000184
(1585900966.676410) vcan0 166#D0320027
(1585900966.677522) vcan0 158#0000000000000028
(1585900966.677536) vcan0 161#000005500108002B
(1585900966.678639) vcan0 191#010090A1410012
(1585900966.678654) vcan0 133#00000000B6
(1585900966.678661) vcan0 136#0002000000000039
(1585900966.678663) vcan0 13A#0000000000000037
(1585900966.679944) vcan0 13F#000000050000003D
(1585900966.679959) vcan0 164#0000C01AA8000013
(1585900966.679961) vcan0 17C#0000000010000030
(1585900966.679963) vcan0 18E#00007A
(1585900966.679965) vcan0 294#040B0002CF5A001D
(1585900966.679967) vcan0 21E#03E83745220610
(1585900966.681039) vcan0 183#0000000C0000103C
(1585900966.682122) vcan0 143#6B6B00FF
(1585900966.684266) vcan0 095#800007F400000026
(1585900966.686209) vcan0 166#D0320036
(1585900966.687320) vcan0 039#0039
(1585900966.687327) vcan0 158#0000000000000037
(1585900966.688402) vcan0 161#000005500108003A
(1585900966.688409) vcan0 191#010010A1410029
(1585900966.688411) vcan0 164#0000C01AA8000022
(1585900966.688413) vcan0 133#0000000089
(1585900966.689487) vcan0 136#000200000000000C
(1585900966.689494) vcan0 13A#000000000000000A
(1585900966.689496) vcan0 13F#0000000500000000
(1585900966.689498) vcan0 17C#0000000010000003
(1585900966.689499) vcan0 18E#00004D
(1585900966.690618) vcan0 1CF#80050000002D
(1585900966.690625) vcan0 1DC#0200002A
(1585900966.690627) vcan0 320#000021
(1585900966.690628) vcan0 324#7465000000000E29
(1585900966.690630) vcan0 183#0000000900001002
(1585900966.690632) vcan0 37C#FD00FD00097F0029
(1585900966.691341) vcan0 244#0000000189
(1585900966.691916) vcan0 143#6B6B00C2
(1585900966.694325) vcan0 095#800007F800000031
(1585900966.694332) vcan0 1A4#0000000800000001
(1585900966.694334) vcan0 1AA#7FFF000000006702
(1585900966.695443) vcan0 1B0#000F0000000148
(1585900966.695455) vcan0 1D0#000000000000000A
(1585900966.696540) vcan0 166#D0320009
(1585900966.697621) vcan0 158#000000000000000A
(1585900966.697632) vcan0 161#000005500108000D
(1585900966.698696) vcan0 191#010010A1410038
(1585900966.698702) vcan0 133#0000000098
(1585900966.698704) vcan0 136#000200000000001B
(1585900966.698706) vcan0 13A#0000000000000019
(1585900966.699768) vcan0 13F#000000050000001F
(1585900966.699773) vcan0 164#0000C01AA8000031
(1585900966.699775) vcan0 039#000C
(1585900966.699777) vcan0 17C#0000000010000012
(1585900966.699778) vcan0 18E#00005C
(1585900966.699780) vcan0 305#8035
(1585900966.700843) vcan0 183#0000000E0000101C
(1585900966.702293) vcan0 244#0000000174
(1585900966.702301) vcan0 143#6B6B00D1
(1585900966.703475) vcan0 095#800007F800000004
(1585900966.706987) vcan0 166#D0320018
(1585900966.708104) vcan0 158#0000000000000019
(1585900966.708118) vcan0 161#000005500108001C
(1585900966.708120) vcan0 191#010010A141000B
(1585900966.708122) vcan0 164#0000C01AA8000004
(1585900966.709360) vcan0 133#00000000A7
(1585900966.709375) vcan0 136#000200000000002A
(1585900966.709377) vcan0 13A#0000000000000028
(1585900966.709379) vcan0 13F#000000050000002E
(1585900966.709381) vcan0 17C#0000000010000021
(1585900966.709382) vcan0 18E#00006B
(1585900966.710474) vcan0 1CF#80050000003C
(1585900966.710487) vcan0 1DC#02000039
(1585900966.710489) vcan0 183#0000000A0000102F
(1585900966.711701) vcan0 143#6B6B00E0
(1585900966.712619) vcan0 244#000000018E
(1585900966.714215) vcan0 095#800007F800000013
(1585900966.714229) vcan0 039#001B
(1585900966.714231) vcan0 1A4#0000000800000010
(1585900966.715304) vcan0 1AA#7FFF000000006810
(1585900966.715315) vcan0 1B0#000F0000000157
(1585900966.715317) vcan0 1D0#000000000000000A
(1585900966.716380) vcan0 166#D0320027
(1585900966.717447) vcan0 158#0000000000000028
(1585900966.717707) vcan0 188#00000000
(1585900966.719328) vcan0 161#000005500108002B
(1585900966.719334) vcan0 191#010010A141001A
(1585900966.719336) vcan0 164#0000C01AA8000013
(1585900966.719338) vcan0 133#00000000B6
(1585900966.719340) vcan0 136#0002000000000039
(1585900966.719342) vcan0 13A#0000000000000037
(1585900966.719343) vcan0 13F#000000050000003D
(1585900966.719345) vcan0 17C#0000000010000030
(1585900966.719347) vcan0 18E#00007A
(1585900966.720494) vcan0 294#040B0002CF5A002C
(1585900966.720508) vcan0 21E#03E8374522062F
(1585900966.720510) vcan0 309#00000000000000B1
(1585900966.721615) vcan0 183#0000000700001031
(1585900966.721629) vcan0 143#6B6B00FF
(1585900966.724054) vcan0 095#800007F800000022
(1585900966.726473) vcan0 166#D0320036
(1585900966.727589) vcan0 158#0000000000000037
(1585900966.727604) vcan0 161#000005500108003A
(1585900966.728241) vcan0 244#000000015C
(1585900966.728831) vcan0 191#010010A1410029
(1585900966.728840) vcan0 164#0000C01AA8000022
(1585900966.728846) vcan0 133#0000000089
(1585900966.728848) vcan0 136#000200000000000C
(1585900966.728850) vcan0 13A#000000000000000A
(1585900966.728852) vcan0 039#002A
(1585900966.730046) vcan0 13F#0000000500000000
(1585900966.730061) vcan0 17C#0000000010000003
(1585900966.730064) vcan0 18E#00004D
(1585900966.730066) vcan0 1CF#80050000000F
(1585900966.730067) vcan0 1DC#0200000C
(1585900966.731173) vcan0 183#0000000D0000100E
(1585900966.732264) vcan0 143#6B6B00C2
(1585900966.733347) vcan0 095#800007F800000031
(1585900966.734414) vcan0 1A4#000000080000002F
(1585900966.734420) vcan0 1AA#7FFF00000000682F
(1585900966.735876) vcan0 1B0#000F0000000166
(1585900966.735883) vcan0 1D0#000000000000000A
(1585900966.736986) vcan0 166#D0320009
(1585900966.738165) vcan0 158#000000000000000A
(1585900966.738179) vcan0 161#000005500108000D
(1585900966.738182) vcan0 191#010010A1410038
(1585900966.738184) vcan0 133#0000000098
(1585900966.739307) vcan0 136#000200000000001B
(1585900966.739314) vcan0 13A#0000000000000019
(1585900966.739316) vcan0 13F#000000050000001F
(1585900966.739318) vcan0 164#0000C01AA8000031
(1585900966.739319) vcan0 17C#0000000010000012
(1585900966.740393) vcan0 18E#00005C
(1585900966.741473) vcan0 183#0000000900001011
(1585900966.741480) vcan0 143#6B6B00D1
(1585900966.742605) vcan0 039#0039
(1585900966.743564) vcan0 244#000000013A
(1585900966.744162) vcan0 095#800007F400000008
(1585900966.746558) vcan0 166#D0320018
(1585900966.748354) vcan0 158#0000000000000019
(1585900966.748361) vcan0 161#000005500108001C
(1585900966.748363) vcan0 191#010010A141000B
(1585900966.748365) vcan0 164#0000C01AA8000004
(1585900966.748367) vcan0 133#00000000A7
(1585900966.749431) vcan0 136#000200000000002A
(1585900966.749461) vcan0 13A#0000000000000028
(1585900966.749477) vcan0 13F#000000050000002E
(1585900966.749492) vcan0 17C#0000000010000021
(1585900966.749506) vcan0 18E#00006B
(1585900966.750582) vcan0 1CF#80050000001E
(1585900966.750587) vcan0 1DC#0200001B
(1585900966.750589) vcan0 183#0000000E0000102B
(1585900966.751652) vcan0 143#6B6B00E0
(1585900966.754492) vcan0 095#800007F400000017
(1585900966.754506) vcan0 1A4#000000080000003E
(1585900966.754508) vcan0 1AA#7FFF00000000673F
(1585900966.755613) vcan0 1B0#000F0000000175
(1585900966.755626) vcan0 1D0#000000000000000A
(1585900966.756927) vcan0 166#D0320027
(1585900966.758043) vcan0 158#0000000000000028
(1585900966.758057) vcan0 161#000005500108002B
(1585900966.758059) vcan0 039#000C
(1585900966.758061) vcan0 191#010010A141001A
(1585900966.758063) vcan0 133#00000000B6
(1585900966.759089) vcan0 244#0000000195
(1585900966.759155) vcan0 136#0002000000000039
(1585900966.759162) vcan0 13A#0000000000000037
(1585900966.759164) vcan0 13F#000000050000003D
(1585900966.759166) vcan0 164#0000C01AA8000013
(1585900966.760435) vcan0 17C#0000000010000030
(1585900966.760447) vcan0 18E#00007A
(1585900966.760449) vcan0 294#040B0002CF5A003B
(1585900966.760451) vcan0 21E#03E8374522063E
(1585900966.761583) vcan0 183#0000000A0000103E
(1585900966.761592) vcan0 143#6B6B00FF
(1585900966.764042) vcan0 095#800007F400000026
(1585900966.766185) vcan0 166#D0320036
(1585900966.767263) vcan0 158#0000000000000037
(1585900966.768892) vcan0 161#000005500108003A
(1585900966.768898) vcan0 191#010010A1410029
(1585900966.768900) vcan0 164#0000C01AA8000022
(1585900966.768902) vcan0 133#0000000089
(1585900966.768904) vcan0 136#000200000000000C
(1585900966.768905) vcan0 13A#000000000000000A
(1585900966.770032) vcan0 13F#0000000500000000
(1585900966.770046) vcan0 17C#0000000010000003
(1585900966.770048) vcan0 18E#00004D
(1585900966.770050) vcan0 1CF#80050000002D
(1585900966.770052) vcan0 1DC#0200002A
(1585900966.771157) vcan0 183#0000000700001004
(1585900966.772511) vcan0 143#6B6B00C2
(1585900966.772525) vcan0 333#0000000000003C
(1585900966.773631) vcan0 095#800007F400000035
(1585900966.774659) vcan0 244#000000014C
(1585900966.774771) vcan0 1A4#0000000800000001
(1585900966.774779) vcan0 1AA#7FFF000000006801
(1585900966.774781) vcan0 1B0#000F0000000148
(1585900966.774783) vcan0 1D0#000000000000000A
(1585900966.776962) vcan0 166#D0320009
(1585900966.776976) vcan0 039#001B
(1585900966.778081) vcan0 158#000000000000000A
(1585900966.778096) vcan0 161#000005500108000D
(1585900966.778099) vcan0 191#010010A1410038
(1585900966.778101) vcan0 133#0000000098
(1585900966.779210) vcan0 136#000200000000001B
(1585900966.779224) vcan0 13A#0000000000000019
(1585900966.779227) vcan0 13F#000000050000001F
(1585900966.779228) vcan0 164#0000C01AA8000031
(1585900966.780307) vcan0 17C#0000000010000012
(1585900966.780321) vcan0 18E#00005C
(1585900966.781392) vcan0 183#0000000D0000101D
(1585900966.782473) vcan0 143#6B6B00D1
(1585900966.783542) vcan0 095#800007F800000004
(1585900966.785806) vcan0 244#00000001A2
(1585900966.787026) vcan0 166#D0320018
(1585900966.788142) vcan0 158#0000000000000019
(1585900966.788156) vcan0 161#000005500108001C
(1585900966.788158) vcan0 191#010010A141000B
(1585900966.788160) vcan0 164#0000C01AA8000004
(1585900966.789473) vcan0 133#00000000A7
(1585900966.789487) vcan0 136#000200000000002A
(1585900966.789489) vcan0 13A#0000000000000028
(1585900966.789491) vcan0 13F#000000050000002E
(1585900966.789493) vcan0 17C#0000000010000021
(1585900966.789494) vcan0 18E#00006B
(1585900966.790577) vcan0 1CF#80050000003C
(1585900966.790591) vcan0 1DC#02000039
(1585900966.790593) vcan0 320#000030
(1585900966.790595) vcan0 324#7465000000000E38
(1585900966.790597) vcan0 183#0000000900001020
(1585900966.791708) vcan0 37C#FD00FD00097F0038
(1585900966.791715) vcan0 039#002A
(1585900966.791717) vcan0 40C#0000000004000013
(1585900966.791719) vcan0 454#23EF18
(1585900966.791720) vcan0 143#6B6B00E0
(1585900966.793898) vcan0 095#800007F800000013
(1585900966.794982) vcan0 1A4#0000000800000010
(1585900966.794989) vcan0 1AA#7FFF000000006810
(1585900966.794991) vcan0 1B0#000F0000000157
(1585900966.794993) vcan0 1D0#000000000000000A
(1585900966.796057) vcan0 166#D0320027
(1585900966.797311) vcan0 158#0000000000000028
(1585900966.798385) vcan0 161#000005500108002B
(1585900966.798397) vcan0 191#010010A141001A
(1585900966.798399) vcan0 133#00000000B6
(1585900966.798400) vcan0 136#0002000000000039
(1585900966.799490) vcan0 13A#0000000000000037
(1585900966.799506) vcan0 13F#000000050000003D
(1585900966.799508) vcan0 164#0000C01AA8000013
(1585900966.799510) vcan0 17C#0000000010000030
(1585900966.799512) vcan0 18E#00007A
(1585900966.800581) vcan0 294#040B0002CF5A000E
(1585900966.800590) vcan0 21E#03E83745220601
(1585900966.801129) vcan0 244#0000000111
(1585900966.801663) vcan0 183#0000000600001032
(1585900966.801668) vcan0 143#6B6B00FF
(1585900966.803521) vcan0 095#800007F800000022
(1585900966.804628) vcan0 039#0039
(1585900966.804642) vcan0 305#8008
(1585900966.805994) vcan0 166#D0320036
(1585900966.808528) vcan0 158#0000000000000037
(1585900966.808542) vcan0 161#000005500108003A
(1585900966.808545) vcan0 191#010010A1410029
(1585900966.808546) vcan0 164#0000C01AA8000022
(1585900966.808548) vcan0 133#0000000089
(1585900966.808550) vcan0 136#000200000000000C
(1585900966.809643) vcan0 13A#000000000000000A
(1585900966.809655) vcan0 13F#0000000500000000
(1585900966.809657) vcan0 17C#0000000010000003
(1585900966.809659) vcan0 18E#00004D
(1585900966.809661) vcan0 1CF#80050000000F
(1585900966.809663) vcan0 1DC#0200000C
(1585900966.810957) vcan0 183#0000000C0000100F
(1585900966.812367) vcan0 143#6B6B00C2
(1585900966.813612) vcan0 095#800007F800000031
(1585900966.814697) vcan0 1A4#000000080000002F
(1585900966.814708) vcan0 1AA#7FFF00000000682F
(1585900966.814710) vcan0 1B0#000F0000000166
(1585900966.815773) vcan0 1D0#000000000000000A
(1585900966.816423) vcan0 244#0000000194
(1585900966.816913) vcan0 166#D0320009
(1585900966.817979) vcan0 158#000000000000000A
(1585900966.817985) vcan0 161#000005500108000D
(1585900966.817987) vcan0 191#010010A1410038
(1585900966.819646) vcan0 164#0000C01AA8000031
(1585900966.819652) vcan0 133#0000000098
(1585900966.819654) vcan0 136#000200000000001B
(1585900966.819656) vcan0 039#000C
(1585900966.819657) vcan0 13A#0000000000000019
(1585900966.819659) vcan0 13F#000000050000001F
(1585900966.819660) vcan0 17C#0000000010000012
(1585900966.819662) vcan0 18E#00005C
(1585900966.820766) vcan0 309#0000000000000084
(1585900966.820780) vcan0 428#01040000521C2F
(1585900966.820783) vcan0 405#0000040000000029
(1585900966.820784) vcan0 183#0000000900001011
(1585900966.821863) vcan0 143#6B6B00D1
(1585900966.824223) vcan0 095#800007F800000004
(1585900966.826587) vcan0 166#D0320018
(1585900966.826741) vcan0 244#00000001B3
(1585900966.827924) vcan0 158#0000000000000019
(1585900966.827939) vcan0 161#000005500108001C
(1585900966.827941) vcan0 191#010010A141000B
(1585900966.827949) vcan0 164#0000C01AA8000004
(1585900966.829088) vcan0 133#00000000A7
(1585900966.829103) vcan0 136#000200000000002A
(1585900966.829105) vcan0 13A#0000000000000028
(1585900966.829107) vcan0 13F#000000050000002E
(1585900966.829109) vcan0 17C#0000000010000021
(1585900966.830215) vcan0 18E#00006B
(1585900966.830229) vcan0 1CF#80050000001E
(1585900966.830232) vcan0 1DC#0200001B
(1585900966.830234) vcan0 183#0000000E0000102B
(1585900966.832365) vcan0 143#6B6B00E0
(1585900966.833440) vcan0 095#800007F800000013
(1585900966.834510) vcan0 039#001B
(1585900966.834516) vcan0 1A4#000000080000003E
(1585900966.834519) vcan0 1AA#7FFF00000000673F
(1585900966.836189) vcan0 1B0#000F0000000175
(1585900966.836196) vcan0 1D0#000000000000000A
(1585900966.836198) vcan0 166#D0320027
(1585900966.837284) vcan0 158#0000000000000028
(1585900966.838402) vcan0 161#000005500108002B
(1585900966.838417) vcan0 191#010010A141001A
(1585900966.838419) vcan0 164#0000C01AA8000013
(1585900966.838420) vcan0 133#00000000B6
(1585900966.839821) vcan0 136#0002000000000039
(1585900966.839835) vcan0 13A#0000000000000037
(1585900966.839837) vcan0 13F#000000050000003D
(1585900966.839839) vcan0 17C#0000000010000030
(1585900966.839841) vcan0 18E#00007A
(1585900966.839842) vcan0 294#040B0002CF5A001D
(1585900966.841256) vcan0 21E#03E83745220610
(1585900966.841270) vcan0 183#0000000A0000103E
(1585900966.842297) vcan0 244#00000001B7
(1585900966.842377) vcan0 143#6B6B00FF
(1585900966.843550) vcan0 095#800007F400000026
(1585900966.846943) vcan0 166#D0320036
(1585900966.848012) vcan0 158#0000000000000037
(1585900966.848020) vcan0 161#000005500108003A
(1585900966.848022) vcan0 039#002A
(1585900966.848024) vcan0 191#010010A1410029
(1585900966.849087) vcan0 164#0000C01AA8000022
(1585900966.849093) vcan0 133#0000000089
(1585900966.849095) vcan0 136#000200000000000C
(1585900966.849097) vcan0 13A#000000000000000A
(1585900966.849098) vcan0 13F#0000000500000000
(1585900966.850170) vcan0 17C#0000000010000003
(1585900966.850181) vcan0 18E#00004D
(1585900966.850183) vcan0 1CF#80050000002D
(1585900966.850184) vcan0 1DC#0200002A
(1585900966.851274) vcan0 183#0000000F0000100C
(1585900966.852739) vcan0 143#6B6B00C2
(1585900966.852772) vcan0 244#00000001BC
(1585900966.853899) vcan0 095#800007F400000035
(1585900966.855291) vcan0 1A4#0000000800000001
(1585900966.855305) vcan0 1AA#7FFF000000006801
(1585900966.855307) vcan0 1B0#000F0000000148
(1585900966.855309) vcan0 1D0#000000000000000A
(1585900966.856391) vcan0 166#D0320009
(1585900966.857475) vcan0 158#000000000000000A
(1585900966.857482) vcan0 161#000005500108000D
(1585900966.858619) vcan0 191#010010A1410038
(1585900966.858634) vcan0 164#0000C01AA8000031
(1585900966.858636) vcan0 133#0000000098
(1585900966.858638) vcan0 136#000200000000001B
(1585900966.859776) vcan0 13A#0000000000000019
(1585900966.859788) vcan0 13F#000000050000001F
(1585900966.859790) vcan0 17C#0000000010000012
(1585900966.859792) vcan0 18E#00005C
(1585900966.860894) vcan0 183#0000000B0000101F
(1585900966.862226) vcan0 143#6B6B00D1
(1585900966.863371) vcan0 039#0039
(1585900966.863385) vcan0 095#800007F400000008
(1585900966.866575) vcan0 166#D0320018
(1585900966.868326) vcan0 158#0000000000000019
(1585900966.868333) vcan0 161#000005500108001C
(1585900966.868335) vcan0 191#010010A141000B
(1585900966.868337) vcan0 164#0000C01AA8000004
(1585900966.868339) vcan0 133#00000000A7
(1585900966.868432) vcan0 244#00000001DE
(1585900966.869671) vcan0 136#000200000000002A
(1585900966.869685) vcan0 13A#0000000000000028
(1585900966.869687) vcan0 13F#000000050000002E
(1585900966.869689) vcan0 17C#0000000010000021
(1585900966.869691) vcan0 18E#00006B
(1585900966.869692) vcan0 1CF#80050000003C
(1585900966.869694) vcan0 1DC#02000039
(1585900966.870851) vcan0 183#0000000800001021
(1585900966.872207) vcan0 143#6B6B00E0
(1585900966.872222) vcan0 333#0000000000000F
(1585900966.873378) vcan0 095#800007F400000017
(1585900966.874724) vcan0 1A4#0000000800000010
(1585900966.874739) vcan0 1AA#7FFF000000006810
(1585900966.874741) vcan0 1B0#000F0000000157
(1585900966.875980) vcan0 1D0#000000000000000A
(1585900966.875991) vcan0 166#D0320027
(1585900966.877234) vcan0 039#000C
(1585900966.877242) vcan0 158#0000000000000028
(1585900966.878482) vcan0 161#000005500108002B
(1585900966.878489) vcan0 191#010010A141001A
(1585900966.878496) vcan0 133#00000000B6
(1585900966.878498) vcan0 136#0002000000000039
(1585900966.878613) vcan0 244#000000016F
(1585900966.879735) vcan0 13A#0000000000000037
(1585900966.879745) vcan0 13F#000000050000003D
(1585900966.879747) vcan0 164#0000C01AA8000013
(1585900966.879749) vcan0 17C#0000000010000030
(1585900966.879751) vcan0 18E#00007A
(1585900966.879752) vcan0 294#040B0002CF5A002C
(1585900966.880822) vcan0 21E#03E8374522062F
(1585900966.880834) vcan0 183#0000000600001032
(1585900966.881900) vcan0 143#6B6B00FF
(1585900966.885110) vcan0 095#800007F400000026
(1585900966.886243) vcan0 166#D0320036
(1585900966.887358) vcan0 158#0000000000000037
(1585900966.888481) vcan0 161#000005500108003A
(1585900966.888488) vcan0 191#010010A1410029
(1585900966.888490) vcan0 164#0000C01AA8000022
(1585900966.888492) vcan0 133#0000000089
(1585900966.888494) vcan0 136#000200000000000C
(1585900966.889725) vcan0 13A#000000000000000A
(1585900966.889731) vcan0 13F#0000000500000000
(1585900966.889734) vcan0 17C#0000000010000003
(1585900966.889735) vcan0 18E#00004D
(1585900966.889737) vcan0 1CF#80050000000F
(1585900966.889739) vcan0 1DC#0200000C
(1585900966.890811) vcan0 320#000003
(1585900966.890818) vcan0 324#7465000000000E0B
(1585900966.890820) vcan0 183#0000000400001007
(1585900966.890822) vcan0 37C#FD00FD00097F000B
(1585900966.891961) vcan0 143#6B6B00C2
(1585900966.893940) vcan0 244#0000000166
(1585900966.894481) vcan0 095#800007F400000035
(1585900966.894488) vcan0 1A4#000000080000002F
(1585900966.894490) vcan0 1AA#7FFF00000000682F
(1585900966.895612) vcan0 1B0#000F0000000166
(1585900966.895619) vcan0 1D0#000000000000000A
(1585900966.895621) vcan0 039#001B
(1585900966.896741) vcan0 166#D0320009
(1585900966.897809) vcan0 158#000000000000000A
(1585900966.897816) vcan0 161#000005500108000D
(1585900966.897818) vcan0 191#010010A1410038
(1585900966.898884) vcan0 133#0000000098
(1585900966.898891) vcan0 136#000200000000001B
(1585900966.898893) vcan0 13A#0000000000000019
(1585900966.898895) vcan0 13F#000000050000001F
(1585900966.899960) vcan0 164#0000C01AA8000031
(1585900966.899966) vcan0 17C#0000000010000012
(1585900966.899968) vcan0 18E#00005C
(1585900966.901894) vcan0 183#0000000300001017
(1585900966.901907) vcan0 143#6B6B00D1
(1585900966.904302) vcan0 095#800007F400000008
(1585900966.906535) vcan0 166#D0320018
(1585900966.907691) vcan0 158#0000000000000019
(1585900966.907705) vcan0 161#000005500108001C
(1585900966.907707) vcan0 191#010010A141000B
(1585900966.908855) vcan0 164#0000C01AA8000004
(1585900966.908870) vcan0 133#00000000A7
(1585900966.908873) vcan0 136#000200000000002A
(1585900966.908875) vcan0 13A#0000000000000028
(1585900966.908876) vcan0 13F#000000050000002E
(1585900966.909432) vcan0 244#0000000143
(1585900966.909981) vcan0 17C#0000000010000021
(1585900966.909989) vcan0 18E#00006B
(1585900966.909991) vcan0 1CF#80050000001E
(1585900966.909993) vcan0 039#002A
(1585900966.909994) vcan0 1DC#0200001B
(1585900966.911205) vcan0 183#0000000A0000102F
(1585900966.911218) vcan0 305#8017
(1585900966.912551) vcan0 143#6B6B00E0
(1585900966.913645) vcan0 095#800007F400000017
(1585900966.914723) vcan0 1A4#000000080000003E
(1585900966.914734) vcan0 1AA#7FFF00000000673F
(1585900966.914736) vcan0 1B0#000F0000000175
(1585900966.915799) vcan0 1D0#000000000000000A
(1585900966.916868) vcan0 166#D0320027
(1585900966.918619) vcan0 158#0000000000000028
(1585900966.918625) vcan0 161#000005500108002B
(1585900966.918627) vcan0 191#010010A141001A
(1585900966.918629) vcan0 164#0000C01AA8000013
(1585900966.918631) vcan0 133#00000000B6
(1585900966.918633) vcan0 136#0002000000000039
(1585900966.919712) vcan0 244#000000012B
(1585900966.919729) vcan0 13A#0000000000000037
(1585900966.919736) vcan0 13F#000000050000003D
(1585900966.919738) vcan0 17C#0000000010000030
(1585900966.919739) vcan0 18E#00007A
