(1585903910.513357) vcan0 143#6B6B00E0
(1585903910.513363) vcan0 333#0000000000000F
(1585903910.514503) vcan0 095#800007F400000017
(1585903910.515616) vcan0 1A4#0000000800000010
(1585903910.515630) vcan0 1AA#7FFF000000006810
(1585903910.515632) vcan0 1B0#000F0000000157
(1585903910.515634) vcan0 1D0#000000000000000A
(1585903910.516787) vcan0 166#D0320027
(1585903910.516804) vcan0 039#000C
(1585903910.517925) vcan0 158#0000000000000028
(1585903910.519025) vcan0 161#000005500108002B
(1585903910.519038) vcan0 191#010010A141001A
(1585903910.519045) vcan0 133#00000000B6
(1585903910.519047) vcan0 136#0002000000000039
(1585903910.520105) vcan0 244#0000000156
(1585903910.520165) vcan0 13A#0000000000000037
(1585903910.520172) vcan0 13F#000000050000003D
(1585903910.520174) vcan0 164#0000C01AA8000013
(1585903910.520176) vcan0 17C#0000000010000030
(1585903910.520178) vcan0 18E#00007A
(1585903910.521428) vcan0 294#040B0002CF5A002C
(1585903910.521442) vcan0 21E#03E8374522062F
(1585903910.521444) vcan0 183#0000000600001032
(1585903910.522547) vcan0 143#6B6B00FF
(1585903910.524694) vcan0 095#800007F400000026
(1585903910.526835) vcan0 166#D0320036
(1585903910.527901) vcan0 158#0000000000000037
(1585903910.528967) vcan0 161#000005500108003A
(1585903910.528973) vcan0 191#010010A1410029
(1585903910.528975) vcan0 164#0000C01AA8000022
(1585903910.528977) vcan0 133#0000000089
(1585903910.528979) vcan0 136#000200000000000C
(1585903910.530041) vcan0 13A#000000000000000A
(1585903910.530047) vcan0 13F#0000000500000000
(1585903910.530048) vcan0 17C#0000000010000003
(1585903910.530050) vcan0 18E#00004D
(1585903910.531112) vcan0 1CF#80050000000F
(1585903910.531118) vcan0 1DC#0200000C
(1585903910.531120) vcan0 320#000003
(1585903910.531122) vcan0 324#7465000000000E0B
(1585903910.531123) vcan0 183#0000000400001007
(1585903910.531125) vcan0 37C#FD00FD00097F000B
(1585903910.532187) vcan0 143#6B6B00C2
(1585903910.534310) vcan0 095#800007F400000035
(1585903910.535353) vcan0 244#00000001D9
(1585903910.535361) vcan0 1A4#000000080000002F
(1585903910.535365) vcan0 1AA#7FFF00000000682F
(1585903910.535366) vcan0 1B0#000F0000000166
(1585903910.535368) vcan0 1D0#000000000000000A
(1585903910.536430) vcan0 039#001B
(1585903910.540431) vcan0 166#D0320009
(1585903910.540437) vcan0 158#000000000000000A
(1585903910.540439) vcan0 161#000005500108000D
(1585903910.540440) vcan0 191#010010A1410038
(1585903910.540442) vcan0 133#0000000098
(1585903910.540444) vcan0 136#000200000000001B
(1585903910.540445) vcan0 13A#0000000000000019
(1585903910.540447) vcan0 13F#000000050000001F
(1585903910.540448) vcan0 164#0000C01AA8000031
(1585903910.540450) vcan0 17C#0000000010000012
(1585903910.540451) vcan0 18E#00005C
(1585903910.541987) vcan0 183#0000000300001017
(1585903910.541993) vcan0 143#6B6B00D1
(1585903910.544119) vcan0 095#800007F400000008
(1585903910.547310) vcan0 166#D0320018
(1585903910.548439) vcan0 158#0000000000000019
(1585903910.548447) vcan0 161#000005500108001C
(1585903910.548449) vcan0 191#010010A141000B
(1585903910.549567) vcan0 164#0000C01AA8000004
(1585903910.549574) vcan0 133#00000000A7
(1585903910.549576) vcan0 136#000200000000002A
(1585903910.549578) vcan0 13A#0000000000000028
(1585903910.549579) vcan0 13F#000000050000002E
(1585903910.550594) vcan0 244#0000000115
(1585903910.550656) vcan0 17C#0000000010000021
(1585903910.550661) vcan0 18E#00006B
(1585903910.550663) vcan0 1CF#80050000001E
(1585903910.550665) vcan0 039#002A
(1585903910.550667) vcan0 1DC#0200001B
(1585903910.551927) vcan0 183#0000000A0000102F
(1585903910.551940) vcan0 305#8017
(1585903910.553262) vcan0 143#6B6B00E0
(1585903910.554469) vcan0 095#800007F400000017
(1585903910.555585) vcan0 1A4#000000080000003E
(1585903910.555599) vcan0 1AA#7FFF00000000673F
(1585903910.555601) vcan0 1B0#000F0000000175
(1585903910.555603) vcan0 1D0#000000000000000A
(1585903910.556674) vcan0 166#D0320027
(1585903910.558812) vcan0 158#0000000000000028
(1585903910.558822) vcan0 161#000005500108002B
(1585903910.558824) vcan0 191#010010A141001A
(1585903910.558826) vcan0 164#0000C01AA8000013
(1585903910.558827) vcan0 133#00000000B6
(1585903910.559890) vcan0 136#0002000000000039
(1585903910.559896) vcan0 13A#0000000000000037
(1585903910.559897) vcan0 13F#000000050000003D
(1585903910.559899) vcan0 17C#0000000010000030
(1585903910.560961) vcan0 18E#00007A
(1585903910.560967) vcan0 294#040B0002CF5A003B
(1585903910.560969) vcan0 21E#03E8374522063E
(1585903910.560970) vcan0 309#0000000000000093
(1585903910.562033) vcan0 183#0000000700001031
(1585903910.562038) vcan0 143#6B6B00FF
(1585903910.564159) vcan0 095#800007F400000026
(1585903910.564165) vcan0 039#0039
(1585903910.565829) vcan0 244#000000013A
(1585903910.567425) vcan0 166#D0320036
(1585903910.568511) vcan0 158#0000000000000037
(1585903910.568524) vcan0 161#000005500108003A
(1585903910.568526) vcan0 191#010010A1410029
(1585903910.568528) vcan0 164#0000C01AA8000022
(1585903910.569596) vcan0 133#0000000089
(1585903910.569602) vcan0 136#000200000000000C
(1585903910.569604) vcan0 13A#000000000000000A
(1585903910.569606) vcan0 13F#0000000500000000
(1585903910.570669) vcan0 17C#0000000010000003
(1585903910.570674) vcan0 18E#00004D
(1585903910.570676) vcan0 1CF#80050000002D
(1585903910.570678) vcan0 1DC#0200002A
(1585903910.573189) vcan0 183#0000000D0000100E
(1585903910.573195) vcan0 143#6B6B00C2
(1585903910.574258) vcan0 095#800007F400000035
(1585903910.575332) vcan0 1A4#0000000800000001
(1585903910.575338) vcan0 1AA#7FFF000000006801
(1585903910.575340) vcan0 1B0#000F0000000148
(1585903910.575341) vcan0 1D0#000000000000000A
(1585903910.577461) vcan0 166#D0320009
(1585903910.578527) vcan0 158#000000000000000A
(1585903910.578533) vcan0 161#000005500108000D
(1585903910.578535) vcan0 191#010010A1410038
(1585903910.578536) vcan0 039#000C
(1585903910.579599) vcan0 133#0000000098
(1585903910.579605) vcan0 136#000200000000001B
(1585903910.579606) vcan0 13A#0000000000000019
(1585903910.579608) vcan0 13F#000000050000001F
(1585903910.579609) vcan0 164#0000C01AA8000031
(1585903910.580760) vcan0 17C#0000000010000012
(1585903910.580765) vcan0 18E#00005C
(1585903910.581055) vcan0 244#0000000100
(1585903910.581833) vcan0 183#0000001100001018
(1585903910.582961) vcan0 143#6B6B00D1
(1585903910.584033) vcan0 095#800007F400000008
(1585903910.587347) vcan0 166#D0320018
(1585903910.588456) vcan0 158#0000000000000019
(1585903910.588462) vcan0 161#000005500108001C
(1585903910.588464) vcan0 191#010010A141000B
(1585903910.589531) vcan0 164#0000C01AA8000004
(1585903910.589536) vcan0 133#00000000A7
(1585903910.589538) vcan0 136#000200000000002A
(1585903910.589540) vcan0 13A#0000000000000028
(1585903910.589541) vcan0 13F#000000050000002E
(1585903910.590604) vcan0 17C#0000000010000021
(1585903910.590609) vcan0 18E#00006B
(1585903910.590611) vcan0 1CF#80050000003C
(1585903910.590613) vcan0 1DC#02000039
(1585903910.591685) vcan0 183#0000000C0000102D
(1585903910.591691) vcan0 039#001B
(1585903910.592754) vcan0 143#6B6B00E0
(1585903910.593988) vcan0 095#800007F400000017
(1585903910.595065) vcan0 1A4#0000000800000010
(1585903910.595072) vcan0 1AA#7FFF000000006810
(1585903910.595074) vcan0 1B0#000F0000000157
(1585903910.596141) vcan0 1D0#000000000000000A
(1585903910.596325) vcan0 244#0000000137
(1585903910.597214) vcan0 166#D0320027
(1585903910.598286) vcan0 158#0000000000000028
(1585903910.598291) vcan0 161#000005500108002B
(1585903910.598293) vcan0 191#010010A141001A
(1585903910.599364) vcan0 164#0000C01AA8000013
(1585903910.599372) vcan0 133#00000000B6
(1585903910.599374) vcan0 136#0002000000000039
(1585903910.599375) vcan0 13A#0000000000000037
(1585903910.600494) vcan0 13F#000000050000003D
(1585903910.600502) vcan0 17C#0000000010000030
(1585903910.600503) vcan0 18E#00007A
(1585903910.600505) vcan0 294#040B0002CF5A000E
(1585903910.600507) vcan0 21E#03E83745220601
(1585903910.601576) vcan0 183#000000090000103F
(1585903910.602720) vcan0 143#6B6B00FF
(1585903910.603962) vcan0 095#800007F400000026
(1585903910.606119) vcan0 039#002A
(1585903910.607186) vcan0 166#D0320036
(1585903910.608253) vcan0 158#0000000000000037
(1585903910.608267) vcan0 161#000005500108003A
(1585903910.608272) vcan0 191#010010A1410029
(1585903910.609334) vcan0 164#0000C01AA8000022
(1585903910.609339) vcan0 133#0000000089
(1585903910.609341) vcan0 136#000200000000000C
(1585903910.609343) vcan0 13A#000000000000000A
(1585903910.610750) vcan0 13F#0000000500000000
(1585903910.610756) vcan0 17C#0000000010000003
(1585903910.610767) vcan0 18E#00004D
(1585903910.610770) vcan0 1CF#80050000000F
(1585903910.610772) vcan0 1DC#0200000C
(1585903910.611613) vcan0 244#0000000189
(1585903910.612058) vcan0 183#0000000600001005
(1585903910.612063) vcan0 143#6B6B00C2
(1585903910.613186) vcan0 333#0000000000001E
(1585903910.614357) vcan0 095#800007F400000035
(1585903910.615464) vcan0 1A4#000000080000002F
(1585903910.615470) vcan0 1AA#7FFF00000000682F
(1585903910.615471) vcan0 1B0#000F0000000166
(1585903910.615473) vcan0 1D0#000000000000000A
(1585903910.617687) vcan0 166#D0320009
(1585903910.618858) vcan0 158#000000000000000A
(1585903910.618914) vcan0 161#000005500108000D
(1585903910.619012) vcan0 191#010010A1410038
(1585903910.619028) vcan0 133#0000000098
(1585903910.619050) vcan0 136#000200000000001B
(1585903910.620201) vcan0 13A#0000000000000019
(1585903910.620225) vcan0 13F#000000050000001F
(1585903910.620232) vcan0 164#0000C01AA8000031
(1585903910.620238) vcan0 17C#0000000010000012
(1585903910.620244) vcan0 18E#00005C
(1585903910.620251) vcan0 039#0039
(1585903910.621387) vcan0 183#0000000C0000101E
(1585903910.622495) vcan0 143#6B6B00D1
(1585903910.624696) vcan0 095#800007F400000008
(1585903910.626895) vcan0 166#D0320018
(1585903910.627043) vcan0 244#000000019C
(1585903910.628888) vcan0 158#0000000000000019
(1585903910.628904) vcan0 161#000005500108001C
(1585903910.628910) vcan0 191#010090A1410003
(1585903910.628914) vcan0 164#0000C01AA8000004
(1585903910.628919) vcan0 133#00000000A7
(1585903910.630004) vcan0 136#000200000000002A
(1585903910.630021) vcan0 13A#0000000000000028
(1585903910.630026) vcan0 13F#000000050000002E
(1585903910.630031) vcan0 17C#0000000010000021
(1585903910.630035) vcan0 18E#00006B
(1585903910.631121) vcan0 1CF#80050000001E
(1585903910.631138) vcan0 1DC#0200001B
(1585903910.631143) vcan0 320#000012
(1585903910.631147) vcan0 324#7465000000000E1A
(1585903910.631152) vcan0 37C#FD00FD00097F001A
(1585903910.631157) vcan0 183#0000001000001028
(1585903910.632234) vcan0 143#6B6B00E0
(1585903910.634389) vcan0 095#800007F400000017
(1585903910.635476) vcan0 1A4#000000080000003E
(1585903910.635489) vcan0 1AA#7FFF00000000673F
(1585903910.635493) vcan0 1B0#000F0000000175
(1585903910.635497) vcan0 1D0#000000000000000A
(1585903910.637227) vcan0 166#D0320027
(1585903910.638308) vcan0 158#0000000000000028
(1585903910.638318) vcan0 161#000005500108002B
(1585903910.638322) vcan0 191#010090A1410012
(1585903910.639407) vcan0 133#00000000B6
(1585903910.639417) vcan0 136#0002000000000039
(1585903910.639420) vcan0 13A#0000000000000037
(1585903910.639423) vcan0 13F#000000050000003D
(1585903910.640497) vcan0 164#0000C01AA8000013
(1585903910.640508) vcan0 17C#0000000010000030
(1585903910.640511) vcan0 18E#00007A
(1585903910.640514) vcan0 294#040B0002CF5A001D
(1585903910.640517) vcan0 039#000C
(1585903910.641590) vcan0 21E#03E83745220610
(1585903910.641601) vcan0 183#0000000C0000103C
(1585903910.642312) vcan0 244#000000015C
(1585903910.643084) vcan0 143#6B6B00FF
(1585903910.644160) vcan0 095#800007F400000026
(1585903910.647410) vcan0 166#D0320036
(1585903910.648498) vcan0 158#0000000000000037
(1585903910.648505) vcan0 161#000005500108003A
(1585903910.648508) vcan0 191#010090A1410021
(1585903910.648510) vcan0 164#0000C01AA8000022
(1585903910.649583) vcan0 133#0000000089
(1585903910.649592) vcan0 136#000200000000000C
(1585903910.649594) vcan0 13A#000000000000000A
(1585903910.649596) vcan0 13F#0000000500000000
(1585903910.650671) vcan0 17C#0000000010000003
(1585903910.650679) vcan0 18E#00004D
(1585903910.650681) vcan0 1CF#80050000002D
(1585903910.650683) vcan0 1DC#0200002A
(1585903910.651753) vcan0 183#0000000900001002
(1585903910.652826) vcan0 143#6B6B00C2
(1585903910.652832) vcan0 305#8026
(1585903910.653948) vcan0 095#800007F400000035
(1585903910.655022) vcan0 1A4#0000000800000001
(1585903910.655028) vcan0 1AA#7FFF000000006801
(1585903910.656115) vcan0 1B0#000F0000000148
(1585903910.656126) vcan0 1D0#000000000000000A
(1585903910.657205) vcan0 166#D0320009
(1585903910.657560) vcan0 244#00000001A1
(1585903910.658282) vcan0 158#000000000000000A
(1585903910.658288) vcan0 161#000005500108000D
(1585903910.658290) vcan0 191#010090A1410030
(1585903910.659353) vcan0 164#0000C01AA8000031
(1585903910.659358) vcan0 133#0000000098
(1585903910.659360) vcan0 136#000200000000001B
(1585903910.659362) vcan0 13A#0000000000000019
(1585903910.660424) vcan0 13F#000000050000001F
(1585903910.660430) vcan0 17C#0000000010000012
(1585903910.660431) vcan0 18E#00005C
(1585903910.660433) vcan0 309#00000000000000A2
(1585903910.662084) vcan0 039#001B
(1585903910.662090) vcan0 183#0000000600001014
(1585903910.662091) vcan0 143#6B6B00D1
(1585903910.664356) vcan0 095#800007F400000008
(1585903910.666584) vcan0 166#D0320018
(1585903910.668889) vcan0 158#0000000000000019
(1585903910.668917) vcan0 161#000005500108001C
(1585903910.668922) vcan0 191#010090A1410003
(1585903910.668927) vcan0 133#00000000A7
(1585903910.668931) vcan0 136#000200000000002A
(1585903910.670037) vcan0 13A#0000000000000028
(1585903910.670053) vcan0 13F#000000050000002E
(1585903910.670068) vcan0 164#0000C01AA8000004
(1585903910.670073) vcan0 17C#0000000010000021
(1585903910.670077) vcan0 18E#00006B
(1585903910.671208) vcan0 1CF#80050000003C
(1585903910.671224) vcan0 1DC#02000039
(1585903910.671229) vcan0 183#0000000C0000102D
(1585903910.672348) vcan0 143#6B6B00E0
(1585903910.673199) vcan0 244#0000000110
(1585903910.674161) vcan0 095#800007F400000017
(1585903910.675246) vcan0 1A4#0000000800000010
(1585903910.675258) vcan0 1AA#7FFF000000006810
(1585903910.675262) vcan0 1B0#000F0000000157
(1585903910.675266) vcan0 039#002A
(1585903910.676343) vcan0 1D0#000000000000000A
(1585903910.677427) vcan0 166#D0320027
(1585903910.678505) vcan0 158#0000000000000028
(1585903910.678515) vcan0 161#000005500108002B
(1585903910.678518) vcan0 191#010090A1410012
(1585903910.679591) vcan0 133#00000000B6
(1585903910.679601) vcan0 136#0002000000000039
(1585903910.679604) vcan0 13A#0000000000000037
(1585903910.679607) vcan0 13F#000000050000003D
(1585903910.679610) vcan0 164#0000C01AA8000013
(1585903910.680682) vcan0 17C#0000000010000030
(1585903910.680693) vcan0 18E#00007A
(1585903910.680696) vcan0 294#040B0002CF5A002C
(1585903910.680699) vcan0 21E#03E8374522062F
(1585903910.682883) vcan0 183#0000001000001037
(1585903910.682894) vcan0 143#6B6B00FF
(1585903910.683974) vcan0 095#800007F400000026
(1585903910.687293) vcan0 166#D0320036
(1585903910.688417) vcan0 244#0000000143
(1585903910.688456) vcan0 158#0000000000000037
(1585903910.688462) vcan0 161#000005500108003A
(1585903910.688464) vcan0 191#010090A1410021
(1585903910.689529) vcan0 164#0000C01AA8000022
(1585903910.689536) vcan0 133#0000000089
(1585903910.689538) vcan0 136#000200000000000C
(1585903910.689540) vcan0 13A#000000000000000A
(1585903910.689543) vcan0 13F#0000000500000000
(1585903910.690609) vcan0 17C#0000000010000003
(1585903910.690617) vcan0 18E#00004D
(1585903910.690619) vcan0 1CF#80050000000F
(1585903910.690621) vcan0 039#0039
(1585903910.690623) vcan0 1DC#0200000C
(1585903910.691690) vcan0 183#0000000C0000100F
(1585903910.692774) vcan0 143#6B6B00C2
(1585903910.694798) vcan0 095#800007F400000035
(1585903910.694805) vcan0 1A4#000000080000002F
(1585903910.694807) vcan0 1AA#7FFF00000000682F
(1585903910.695879) vcan0 1B0#000F0000000166
(1585903910.695885) vcan0 1D0#000000000000000A
(1585903910.696956) vcan0 166#D0320009
(1585903910.698032) vcan0 158#000000000000000A
(1585903910.698039) vcan0 161#000005500108000D
(1585903910.698571) vcan0 244#000000011E
(1585903910.699102) vcan0 191#010090A1410030
(1585903910.699107) vcan0 133#0000000098
(1585903910.699109) vcan0 136#000200000000001B
(1585903910.699111) vcan0 13A#0000000000000019
(1585903910.700181) vcan0 13F#000000050000001F
(1585903910.700187) vcan0 164#0000C01AA8000031
(1585903910.700189) vcan0 17C#0000000010000012
(1585903910.700190) vcan0 18E#00005C
(1585903910.701275) vcan0 183#0000001000001019
(1585903910.702349) vcan0 143#6B6B00D1
(1585903910.703515) vcan0 039#000C
(1585903910.704636) vcan0 095#800007F400000008
(1585903910.706793) vcan0 166#D0320018
(1585903910.707886) vcan0 158#0000000000000019
(1585903910.708963) vcan0 161#000005500108001C
(1585903910.708970) vcan0 191#010090A1410003
(1585903910.708972) vcan0 164#0000C01AA8000004
(1585903910.708973) vcan0 133#00000000A7
(1585903910.710036) vcan0 136#000200000000002A
(1585903910.710041) vcan0 13A#0000000000000028
(1585903910.710043) vcan0 13F#000000050000002E
(1585903910.710045) vcan0 17C#0000000010000021
(1585903910.710046) vcan0 18E#00006B
(1585903910.711302) vcan0 1CF#80050000001E
(1585903910.711308) vcan0 1DC#0200001B
(1585903910.711309) vcan0 183#0000000C0000102D
(1585903910.712463) vcan0 143#6B6B00E0
(1585903910.713569) vcan0 333#0000000000002D
(1585903910.713815) vcan0 244#0000000139
(1585903910.714642) vcan0 095#800007F400000017
(1585903910.714648) vcan0 1A4#000000080000003E
(1585903910.715787) vcan0 1AA#7FFF00000000673F
(1585903910.715818) vcan0 1B0#000F0000000175
(1585903910.715828) vcan0 1D0#000000000000000A
(1585903910.716902) vcan0 166#D0320027
(1585903910.718055) vcan0 158#0000000000000028
(1585903910.718070) vcan0 161#000005500108002B
(1585903910.719149) vcan0 191#010090A1410012
(1585903910.719156) vcan0 133#00000000B6
(1585903910.719158) vcan0 136#0002000000000039
(1585903910.719159) vcan0 13A#0000000000000037
(1585903910.720298) vcan0 13F#000000050000003D
(1585903910.720342) vcan0 164#0000C01AA8000013
(1585903910.720366) vcan0 17C#0000000010000030
(1585903910.720368) vcan0 18E#00007A
(1585903910.720370) vcan0 294#040B0002CF5A003B
(1585903910.721437) vcan0 21E#03E8374522063E
(1585903910.721442) vcan0 183#000000090000103F
(1585903910.722510) vcan0 143#6B6B00FF
(1585903910.724635) vcan0 039#001B
(1585903910.724640) vcan0 095#800007F400000026
(1585903910.726989) vcan0 166#D0320036
(1585903910.728061) vcan0 158#0000000000000037
(1585903910.728066) vcan0 161#000005500108003A
(1585903910.729147) vcan0 244#00000001E7
(1585903910.729191) vcan0 191#010090A1410021
(1585903910.729195) vcan0 164#0000C01AA8000022
(1585903910.729197) vcan0 133#0000000089
(1585903910.729198) vcan0 136#000200000000000C
(1585903910.730376) vcan0 13A#000000000000000A
(1585903910.730409) vcan0 13F#0000000500000000
(1585903910.730410) vcan0 17C#0000000010000003
(1585903910.730412) vcan0 18E#00004D
(1585903910.730414) vcan0 1CF#80050000002D
(1585903910.730415) vcan0 1DC#0200002A
(1585903910.731483) vcan0 320#000021
(1585903910.731489) vcan0 324#7465000000000E29
(1585903910.731491) vcan0 183#0000000E0000100D
(1585903910.731493) vcan0 37C#FD00FD00097F0029
(1585903910.731494) vcan0 40C#014A484D46413325
(1585903910.732562) vcan0 454#23EF27
(1585903910.732568) vcan0 143#6B6B00C2
(1585903910.734760) vcan0 095#800007F400000035
(1585903910.734774) vcan0 1A4#0000000800000001
(1585903910.735911) vcan0 1AA#7FFF000000006801
(1585903910.735917) vcan0 1B0#000F0000000148
(1585903910.735919) vcan0 1D0#000000000000000A
(1585903910.736986) vcan0 166#D0320009
(1585903910.738057) vcan0 158#000000000000000A
(1585903910.738063) vcan0 161#000005500108000D
(1585903910.739136) vcan0 191#010090A1410030
(1585903910.739141) vcan0 133#0000000098
(1585903910.739143) vcan0 136#000200000000001B
(1585903910.739144) vcan0 13A#0000000000000019
(1585903910.740206) vcan0 13F#000000050000001F
(1585903910.740211) vcan0 164#0000C01AA8000031
(1585903910.740213) vcan0 17C#0000000010000012
(1585903910.740215) vcan0 18E#00005C
(1585903910.743172) vcan0 183#0000000A00001010
(1585903910.743178) vcan0 143#6B6B00D1
(1585903910.744316) vcan0 095#800007F400000008
(1585903910.744345) vcan0 039#002A
(1585903910.744492) vcan0 244#00000001C3
(1585903910.747546) vcan0 166#D0320018
(1585903910.748617) vcan0 158#0000000000000019
(1585903910.748623) vcan0 161#000005500108001C
(1585903910.748625) vcan0 191#010090A1410003
(1585903910.748626) vcan0 164#0000C01AA8000004
(1585903910.749695) vcan0 133#00000000A7
(1585903910.749700) vcan0 136#000200000000002A
(1585903910.749702) vcan0 13A#0000000000000028
(1585903910.749704) vcan0 13F#000000050000002E
(1585903910.749705) vcan0 17C#0000000010000021
(1585903910.750778) vcan0 18E#00006B
(1585903910.750784) vcan0 1CF#80050000003C
(1585903910.750786) vcan0 1DC#02000039
(1585903910.751854) vcan0 183#0000000700001022
(1585903910.752934) vcan0 143#6B6B00E0
(1585903910.754008) vcan0 095#800007F400000017
(1585903910.754652) vcan0 244#00000001D8
(1585903910.755187) vcan0 1A4#0000000800000010
(1585903910.755192) vcan0 1AA#7FFF000000006810
(1585903910.755194) vcan0 1B0#000F0000000157
(1585903910.756256) vcan0 1D0#000000000000000A
(1585903910.757322) vcan0 166#D0320027
(1585903910.757328) vcan0 039#0039
(1585903910.758406) vcan0 158#0000000000000028
(1585903910.758417) vcan0 161#000005500108002B
(1585903910.758419) vcan0 191#010090A1410012
(1585903910.758421) vcan0 305#8035
(1585903910.759503) vcan0 164#0000C01AA8000013
(1585903910.759516) vcan0 133#00000000B6
(1585903910.759518) vcan0 136#0002000000000039
(1585903910.759520) vcan0 13A#0000000000000037
(1585903910.761163) vcan0 13F#000000050000003D
(1585903910.761169) vcan0 17C#0000000010000030
(1585903910.761171) vcan0 18E#00007A
(1585903910.761173) vcan0 294#040B0002CF5A000E
(1585903910.761175) vcan0 21E#03E83745220601
(1585903910.761186) vcan0 309#00000000000000B1
(1585903910.761188) vcan0 428#01040000521C3E
(1585903910.762364) vcan0 405#0000040000000038
(1585903910.762400) vcan0 183#0000000D0000103B
(1585903910.762402) vcan0 143#6B6B00FF
(1585903910.764531) vcan0 095#800007F400000026
(1585903910.766667) vcan0 166#D0320036
(1585903910.768849) vcan0 158#0000000000000037
(1585903910.768862) vcan0 161#000005500108003A
(1585903910.768864) vcan0 191#010090A1410021
(1585903910.768866) vcan0 164#0000C01AA8000022
(1585903910.768873) vcan0 133#0000000089
(1585903910.769934) vcan0 244#00000001FE
(1585903910.769979) vcan0 136#000200000000000C
(1585903910.769984) vcan0 13A#000000000000000A
(1585903910.769985) vcan0 13F#0000000500000000
(1585903910.769987) vcan0 17C#0000000010000003
(1585903910.769989) vcan0 18E#00004D
(1585903910.771099) vcan0 1CF#80050000000F
(1585903910.771104) vcan0 1DC#0200000C
(1585903910.771106) vcan0 183#0000000900001002
(1585903910.772239) vcan0 039#000C
(1585903910.772269) vcan0 143#6B6B00C2
(1585903910.774389) vcan0 095#800007F400000035
(1585903910.775455) vcan0 1A4#000000080000002F
(1585903910.775460) vcan0 1AA#7FFF00000000682F
(1585903910.775462) vcan0 1B0#000F0000000166
(1585903910.775464) vcan0 1D0#000000000000000A
(1585903910.777289) vcan0 166#D0320009
(1585903910.778452) vcan0 158#000000000000000A
(1585903910.778458) vcan0 161#000005500108000D
(1585903910.778460) vcan0 191#010090A1410030
(1585903910.778461) vcan0 18E#00005C
(1585903910.779528) vcan0 133#0000000098
(1585903910.779533) vcan0 136#000200000000001B
(1585903910.779535) vcan0 13A#0000000000000019
(1585903910.779537) vcan0 13F#000000050000001F
(1585903910.780675) vcan0 164#0000C01AA8000031
(1585903910.780705) vcan0 17C#0000000010000012
(1585903910.781873) vcan0 183#0000000E0000101C
(1585903910.782974) vcan0 143#6B6B00D1
(1585903910.784045) vcan0 095#800007F400000008
(1585903910.785168) vcan0 244#000000013D
(1585903910.786372) vcan0 039#001B
(1585903910.787471) vcan0 166#D0320018
(1585903910.788599) vcan0 158#0000000000000019
(1585903910.788623) vcan0 161#000005500108001C
(1585903910.788630) vcan0 191#010090A1410003
(1585903910.788637) vcan0 164#0000C01AA8000004
(1585903910.789787) vcan0 133#00000000A7
(1585903910.789848) vcan0 136#000200000000002A
(1585903910.789859) vcan0 13A#0000000000000028
(1585903910.789866) vcan0 13F#000000050000002E
(1585903910.789872) vcan0 17C#0000000010000021
(1585903910.789879) vcan0 18E#00006B
(1585903910.791069) vcan0 1CF#80050000001E
(1585903910.791092) vcan0 1DC#0200001B
(1585903910.791099) vcan0 183#0000000A0000102F
(1585903910.792202) vcan0 143#6B6B00E0
(1585903910.794391) vcan0 095#800007F400000017
(1585903910.795495) vcan0 1A4#000000080000003E
(1585903910.795519) vcan0 1AA#7FFF00000000673F
(1585903910.795526) vcan0 1B0#000F0000000175
(1585903910.795532) vcan0 1D0#000000000000000A
(1585903910.796630) vcan0 166#D0320027
(1585903910.798815) vcan0 158#0000000000000028
(1585903910.798832) vcan0 161#000005500108002B
(1585903910.798837) vcan0 191#010090A1410012
(1585903910.798842) vcan0 164#0000C01AA8000013
(1585903910.798846) vcan0 133#00000000B6
(1585903910.799931) vcan0 136#0002000000000039
(1585903910.799948) vcan0 13A#0000000000000037
(1585903910.799953) vcan0 13F#000000050000003D
(1585903910.799957) vcan0 17C#0000000010000030
(1585903910.799962) vcan0 18E#00007A
(1585903910.800505) vcan0 244#00000001CF
(1585903910.801976) vcan0 294#040B0002CF5A001D
(1585903910.801992) vcan0 21E#03E83745220610
(1585903910.801997) vcan0 039#002A
(1585903910.802001) vcan0 183#0000000F00001039
(1585903910.802006) vcan0 143#6B6B00FF
(1585903910.804179) vcan0 095#800007F400000026
(1585903910.806692) vcan0 166#D0320036
(1585903910.808844) vcan0 158#0000000000000037
(1585903910.808855) vcan0 161#000005500108003A
(1585903910.808858) vcan0 191#010090A1410021
(1585903910.808862) vcan0 164#0000C01AA8000022
(1585903910.808865) vcan0 133#0000000089
(1585903910.809938) vcan0 136#000200000000000C
(1585903910.809949) vcan0 13A#000000000000000A
(1585903910.809952) vcan0 13F#0000000500000000
(1585903910.809955) vcan0 17C#0000000010000003
(1585903910.809958) vcan0 18E#00004D
(1585903910.810698) vcan0 244#000000013C
(1585903910.811545) vcan0 1CF#80050000002D
(1585903910.811555) vcan0 1DC#0200002A
(1585903910.811558) vcan0 183#0000001300001007
(1585903910.812632) vcan0 143#6B6B00C2
(1585903910.812643) vcan0 333#0000000000003C
(1585903910.815837) vcan0 095#800007F400000035
(1585903910.815860) vcan0 1A4#0000000800000001
(1585903910.815864) vcan0 1AA#7FFF000000006801
(1585903910.815867) vcan0 1B0#000F0000000148
(1585903910.815871) vcan0 1D0#000000000000000A
(1585903910.816971) vcan0 166#D0320009
(1585903910.818081) vcan0 158#000000000000000A
(1585903910.818089) vcan0 161#000005500108000D
(1585903910.819234) vcan0 191#010090A1410030
(1585903910.819242) vcan0 133#0000000098
(1585903910.819245) vcan0 136#000200000000001B
(1585903910.819252) vcan0 13A#0000000000000019
(1585903910.820356) vcan0 13F#000000050000001F
(1585903910.820364) vcan0 039#0039
(1585903910.820367) vcan0 164#0000C01AA8000031
(1585903910.820369) vcan0 17C#0000000010000012
(1585903910.820371) vcan0 18E#00005C
(1585903910.821446) vcan0 183#0000000E0000101C
(1585903910.822525) vcan0 143#6B6B00D1
(1585903910.824661) vcan0 095#800007F400000008
(1585903910.825982) vcan0 244#00000001E1
(1585903910.826790) vcan0 166#D0320018
(1585903910.827860) vcan0 158#0000000000000019
(1585903910.828930) vcan0 161#000005500108001C
(1585903910.828936) vcan0 191#010090A1410003
(1585903910.828938) vcan0 164#0000C01AA8000004
(1585903910.828940) vcan0 133#00000000A7
(1585903910.830010) vcan0 136#000200000000002A
(1585903910.830016) vcan0 13A#0000000000000028
(1585903910.830018) vcan0 13F#000000050000002E
(1585903910.830020) vcan0 17C#0000000010000021
(1585903910.830022) vcan0 18E#00006B
(1585903910.831068) vcan0 1CF#80050000003C
(1585903910.831075) vcan0 1DC#02000039
(1585903910.831077) vcan0 320#000030
(1585903910.831078) vcan0 324#7465000000000E38
(1585903910.831080) vcan0 37C#FD00FD00097F0038
(1585903910.832235) vcan0 183#0000000A0000102F
(1585903910.832241) vcan0 143#6B6B00E0
(1585903910.834492) vcan0 095#800007F400000017
(1585903910.835666) vcan0 1A4#0000000800000010
(1585903910.835674) vcan0 1AA#7FFF000000006810
(1585903910.835676) vcan0 1B0#000F0000000157
(1585903910.835677) vcan0 1D0#000000000000000A
(1585903910.836846) vcan0 166#D0320027
(1585903910.837948) vcan0 158#0000000000000028
(1585903910.839019) vcan0 161#000005500108002B
(1585903910.839025) vcan0 039#000C
(1585903910.839026) vcan0 191#010090A1410012
(1585903910.839028) vcan0 133#00000000B6
(1585903910.839030) vcan0 136#0002000000000039
(1585903910.840092) vcan0 13A#0000000000000037
(1585903910.840098) vcan0 13F#000000050000003D
(1585903910.840100) vcan0 164#0000C01AA8000013
(1585903910.840102) vcan0 17C#0000000010000030
(1585903910.840103) vcan0 18E#00007A
(1585903910.841166) vcan0 294#040B0002CF5A002C
(1585903910.841171) vcan0 21E#03E8374522062F
(1585903910.841305) vcan0 244#00000001AE
(1585903910.842233) vcan0 183#0000000700001031
(1585903910.842238) vcan0 143#6B6B00FF
(1585903910.844579) vcan0 095#800007F400000026
(1585903910.846851) vcan0 166#D0320036
(1585903910.847923) vcan0 158#0000000000000037
(1585903910.848995) vcan0 161#000005500108003A
(1585903910.849000) vcan0 191#010090A1410021
(1585903910.849002) vcan0 164#0000C01AA8000022
(1585903910.849004) vcan0 133#0000000089
(1585903910.849005) vcan0 136#000200000000000C
(1585903910.850073) vcan0 13A#000000000000000A
(1585903910.850079) vcan0 13F#0000000500000000
(1585903910.850080) vcan0 17C#0000000010000003
(1585903910.850082) vcan0 18E#00004D
(1585903910.850084) vcan0 1CF#80050000000F
(1585903910.851220) vcan0 1DC#0200000C
(1585903910.851225) vcan0 183#0000000500001006
(1585903910.852370) vcan0 143#6B6B00C2
(1585903910.854546) vcan0 095#800007F400000035
(1585903910.854552) vcan0 039#001B
(1585903910.854554) vcan0 1A4#000000080000002F
(1585903910.855621) vcan0 1AA#7FFF000000006720
(1585903910.855627) vcan0 1B0#000F0000000166
(1585903910.855629) vcan0 1D0#000000000000000A
(1585903910.856566) vcan0 244#00000001D0
(1585903910.857030) vcan0 166#D0320009
(1585903910.858096) vcan0 158#000000000000000A
(1585903910.858102) vcan0 161#000005500108000D
(1585903910.859166) vcan0 191#010090A1410030
(1585903910.859172) vcan0 164#0000C01AA9000030
(1585903910.859174) vcan0 133#0000000098
(1585903910.859176) vcan0 136#000200000000001B
(1585903910.861173) vcan0 13A#0000000000000019
(1585903910.861189) vcan0 13F#000000050000001F
(1585903910.861191) vcan0 17C#0000000010000012
(1585903910.861192) vcan0 18E#00005C
(1585903910.861193) vcan0 309#0000000000000084
(1585903910.862403) vcan0 305#8008
(1585903910.862415) vcan0 183#0000000B0000101F
(1585903910.862417) vcan0 143#6B6B00D1
(1585903910.864710) vcan0 095#800007F400000008
(1585903910.867079) vcan0 166#D0320018
(1585903910.868385) vcan0 158#0000000000000019
(1585903910.868417) vcan0 161#000005500108001C
(1585903910.868424) vcan0 191#010090A1410003
(1585903910.869552) vcan0 133#00000000A7
(1585903910.869576) vcan0 136#000200000000002A
(1585903910.869583) vcan0 13A#0000000000000028
(1585903910.869589) vcan0 039#002A
(1585903910.869595) vcan0 13F#000000050000002E
(1585903910.870747) vcan0 164#0000C01AA8000004
(1585903910.870768) vcan0 17C#0000000010000021
(1585903910.870775) vcan0 18E#00006B
(1585903910.870780) vcan0 1CF#80050000001E
(1585903910.870786) vcan0 1DC#0200001B
(1585903910.871944) vcan0 244#00000001DB
(1585903910.872076) vcan0 183#0000000800001021
(1585903910.872094) vcan0 143#6B6B00E0
(1585903910.874365) vcan0 095#800007F400000017
(1585903910.875475) vcan0 1A4#000000080000003E
(1585903910.875533) vcan0 1AA#7FFF00000000673F
(1585903910.875542) vcan0 1B0#000F0000000175
(1585903910.875548) vcan0 1D0#000000000000000A
(1585903910.876645) vcan0 166#D0320027
(1585903910.878828) vcan0 158#0000000000000028
(1585903910.878844) vcan0 161#000005500108002B
(1585903910.878849) vcan0 191#010090A1410012
(1585903910.878853) vcan0 133#00000000B6
(1585903910.878857) vcan0 136#0002000000000039
(1585903910.879941) vcan0 13A#0000000000000037
(1585903910.879957) vcan0 13F#000000050000003D
(1585903910.879962) vcan0 164#0000C01AA8000013
(1585903910.879966) vcan0 17C#0000000010000030
(1585903910.879970) vcan0 18E#00007A
(1585903910.881055) vcan0 294#040B0002CF5A003B
(1585903910.881071) vcan0 21E#03E8374522063E
(1585903910.882183) vcan0 183#0000000D0000103B
(1585903910.882198) vcan0 143#6B6B00FF
(1585903910.884363) vcan0 095#800007F400000026
(1585903910.887026) vcan0 166#D0320036
(1585903910.887295) vcan0 244#00000001E5
(1585903910.888178) vcan0 158#0000000000000037
(1585903910.888187) vcan0 161#000005500108003A
(1585903910.889333) vcan0 191#010090A1410021
(1585903910.889344) vcan0 164#0000C01AA8000022
(1585903910.889347) vcan0 133#0000000089
(1585903910.889350) vcan0 136#000200000000000C
(1585903910.889353) vcan0 13A#000000000000000A
(1585903910.890425) vcan0 13F#0000000500000000
(1585903910.890435) vcan0 17C#0000000010000003
(1585903910.890438) vcan0 18E#00004D
(1585903910.890441) vcan0 1CF#80050000002D
(1585903910.890444) vcan0 039#0039
(1585903910.890447) vcan0 1DC#0200002A
(1585903910.891520) vcan0 183#0000000900001002
(1585903910.892595) vcan0 143#6B6B00C2
(1585903910.894734) vcan0 095#800007F400000035
(1585903910.894743) vcan0 1A4#0000000800000001
(1585903910.896874) vcan0 1AA#7FFF000000006801
(1585903910.896884) vcan0 1B0#000F0000000148
(1585903910.896886) vcan0 1D0#000000000000000A
(1585903910.896889) vcan0 166#D0320009
(1585903910.897966) vcan0 158#000000000000000A
(1585903910.899057) vcan0 161#000005500108000D
(1585903910.899065) vcan0 191#010090A1410030
(1585903910.899067) vcan0 164#0000C01AA8000031
(1585903910.899070) vcan0 133#0000000098
(1585903910.899072) vcan0 136#000200000000001B
(1585903910.900196) vcan0 13A#0000000000000019
(1585903910.900203) vcan0 13F#000000050000001F
(1585903910.900206) vcan0 17C#0000000010000012
(1585903910.900208) vcan0 18E#00005C
(1585903910.902416) vcan0 183#0000000600001014
(1585903910.902424) vcan0 143#6B6B00D1
(1585903910.902426) vcan0 039#000C
(1585903910.902552) vcan0 244#00000001BA
(1585903910.904563) vcan0 095#800007F400000008
(1585903910.906701) vcan0 166#D0320018
(1585903910.908843) vcan0 158#0000000000000019
(1585903910.908849) vcan0 161#000005500108001C
(1585903910.908852) vcan0 191#010090A1410003
(1585903910.908853) vcan0 164#0000C01AA8000004
(1585903910.908855) vcan0 133#00000000A7
(1585903910.909918) vcan0 136#000200000000002A
(1585903910.909925) vcan0 13A#0000000000000028
(1585903910.909927) vcan0 13F#000000050000002E
(1585903910.909929) vcan0 17C#0000000010000021
(1585903910.909930) vcan0 18E#00006B
(1585903910.911465) vcan0 1CF#80050000003C
(1585903910.911473) vcan0 1DC#02000039
(1585903910.911475) vcan0 183#0000000C0000102D
(1585903910.912549) vcan0 143#6B6B00E0
(1585903910.913721) vcan0 333#0000000000000F
(1585903910.914899) vcan0 095#800007F400000017
(1585903910.914928) vcan0 1A4#0000000800000010
(1585903910.914935) vcan0 1AA#7FFF000000006810
(1585903910.916113) vcan0 1B0#000F0000000157
(1585903910.916149) vcan0 1D0#000000000000000A
(1585903910.916156) vcan0 039#001B
(1585903910.917276) vcan0 166#D0320027
(1585903910.917931) vcan0 244#00000001EF
(1585903910.919177) vcan0 158#0000000000000028
(1585903910.919191) vcan0 161#000005500108002B
(1585903910.919195) vcan0 191#010090A1410012
(1585903910.919200) vcan0 133#00000000B6
(1585903910.919204) vcan0 136#0002000000000039
(1585903910.919208) vcan0 13A#0000000000000037
(1585903910.920344) vcan0 13F#000000050000003D
(1585903910.920367) vcan0 164#0000C01AA8000013
(1585903910.920372) vcan0 17C#0000000010000030
(1585903910.920376) vcan0 18E#00007A
(1585903910.920381) vcan0 294#040B0002CF5A000E
(1585903910.921480) vcan0 21E#03E83745220601
(1585903910.921496) vcan0 183#000000090000103F
(1585903910.922596) vcan0 143#6B6B00FF
(1585903910.924753) vcan0 095#800007F400000026
(1585903910.926906) vcan0 166#D0320036
(1585903910.927991) vcan0 158#0000000000000037
(1585903910.929072) vcan0 161#000005500108003A
(1585903910.929082) vcan0 191#010010A1410029
(1585903910.929086) vcan0 164#0000C01AA8000022
(1585903910.929089) vcan0 133#0000000089
(1585903910.929091) vcan0 136#000200000000000C
(1585903910.931880) vcan0 13A#000000000000000A
(1585903910.931890) vcan0 13F#0000000500000000
(1585903910.931894) vcan0 17C#0000000010000003
(1585903910.931896) vcan0 18E#00004D
(1585903910.931899) vcan0 1CF#80050000000F
(1585903910.931902) vcan0 1DC#0200000C
(1585903910.931905) vcan0 320#000003
(1585903910.931908) vcan0 324#7465000000000E0B
(1585903910.931911) vcan0 183#0000000600001005
(1585903910.931914) vcan0 37C#FD00FD00097F000B
(1585903910.931916) vcan0 039#002A
(1585903910.933000) vcan0 143#6B6B00C2
(1585903910.933203) vcan0 244#0000000176
(1585903910.934076) vcan0 095#800007F400000035
(1585903910.935188) vcan0 1A4#000000080000002F
(1585903910.935201) vcan0 1AA#7FFF000000006720
(1585903910.935204) vcan0 1B0#000F0000000166
(1585903910.936301) vcan0 1D0#000000000000000A
(1585903910.937398) vcan0 166#D0320009
(1585903910.938478) vcan0 158#000000000000000A
(1585903910.938485) vcan0 161#000005500108000D
(1585903910.938488) vcan0 191#010010A1410038
(1585903910.939553) vcan0 133#0000000098
(1585903910.939561) vcan0 136#000200000000001B
(1585903910.939563) vcan0 13A#0000000000000019
(1585903910.939565) vcan0 13F#000000050000001F
(1585903910.939568) vcan0 164#0000C01AA8000031
(1585903910.940635) vcan0 17C#0000000010000012
(1585903910.940642) vcan0 18E#00005C
(1585903910.941709) vcan0 183#0000000C0000101E
(1585903910.942788) vcan0 143#6B6B00D1
(1585903910.945195) vcan0 095#800007F400000008
(1585903910.945202) vcan0 039#0039
(1585903910.947425) vcan0 166#D0320018
(1585903910.948509) vcan0 244#00000001D1
(1585903910.948550) vcan0 158#0000000000000019
(1585903910.948554) vcan0 161#000005500108001C
(1585903910.948556) vcan0 191#010010A141000B
(1585903910.948558) vcan0 164#0000C01AA8000004
(1585903910.949701) vcan0 133#00000000A7
(1585903910.949707) vcan0 136#000200000000002A
(1585903910.949709) vcan0 13A#0000000000000028
(1585903910.949711) vcan0 13F#000000050000002E
(1585903910.949712) vcan0 17C#0000000010000021
(1585903910.950883) vcan0 18E#00006B
(1585903910.950889) vcan0 1CF#80050000001E
(1585903910.950891) vcan0 1DC#0200001B
(1585903910.950893) vcan0 183#0000000900001020
(1585903910.951963) vcan0 143#6B6B00E0
(1585903910.954169) vcan0 095#800007F400000017
(1585903910.955304) vcan0 1A4#000000080000003E
(1585903910.955333) vcan0 1AA#7FFF00000000673F
(1585903910.955343) vcan0 1B0#000F0000000175
(1585903910.956412) vcan0 1D0#000000000000000A
(1585903910.957478) vcan0 166#D0320027
(1585903910.957483) vcan0 039#000C
(1585903910.958546) vcan0 158#0000000000000028
(1585903910.958552) vcan0 161#000005500108002B
(1585903910.958554) vcan0 191#010010A141001A
(1585903910.958556) vcan0 133#00000000B6
(1585903910.958723) vcan0 244#00000001BB
(1585903910.959620) vcan0 136#0002000000000039
(1585903910.959626) vcan0 13A#0000000000000037
(1585903910.959627) vcan0 13F#000000050000003D
(1585903910.959629) vcan0 164#0000C01AA8000013
(1585903910.961468) vcan0 17C#0000000010000030
(1585903910.961474) vcan0 18E#00007A
(1585903910.961476) vcan0 294#040B0002CF5A001D
(1585903910.961477) vcan0 21E#03E83745220610
(1585903910.961479) vcan0 309#0000000000000093
(1585903910.961481) vcan0 183#0000000E0000103A
(1585903910.962555) vcan0 143#6B6B00FF
(1585903910.964773) vcan0 095#800007F400000026
(1585903910.964803) vcan0 305#8017
(1585903910.967048) vcan0 166#D0320036
(1585903910.968208) vcan0 158#0000000000000037
(1585903910.968244) vcan0 161#000005500108003A
(1585903910.969357) vcan0 191#010010A1410029
(1585903910.969363) vcan0 164#0000C01AA8000022
(1585903910.969364) vcan0 133#0000000089
(1585903910.969366) vcan0 136#000200000000000C
(1585903910.969368) vcan0 13A#000000000000000A
(1585903910.970434) vcan0 13F#0000000500000000
(1585903910.970445) vcan0 17C#0000000010000003
(1585903910.970447) vcan0 18E#00004D
(1585903910.970449) vcan0 1CF#80050000002D
(1585903910.970450) vcan0 1DC#0200002A
(1585903910.971517) vcan0 183#0000000A00001001
(1585903910.972590) vcan0 143#6B6B00C2
(1585903910.973656) vcan0 039#001B
(1585903910.973998) vcan0 244#0000000169
(1585903910.974722) vcan0 095#800007F400000035
(1585903910.974727) vcan0 1A4#0000000800000001
(1585903910.975789) vcan0 1AA#7FFF000000006801
(1585903910.975794) vcan0 1B0#000F0000000148
(1585903910.975796) vcan0 1D0#000000000000000A
(1585903910.977752) vcan0 166#D0320009
(1585903910.978898) vcan0 158#000000000000000A
(1585903910.978904) vcan0 161#000005500108000D
(1585903910.978906) vcan0 191#010010A1410038
(1585903910.978907) vcan0 133#0000000098
(1585903910.978909) vcan0 136#000200000000001B
(1585903910.979076) vcan0 188#00000000
(1585903910.979977) vcan0 13A#0000000000000019
(1585903910.979982) vcan0 13F#000000050000001F
(1585903910.979984) vcan0 164#0000C01AA8000031
(1585903910.979986) vcan0 17C#0000000010000012
(1585903910.979987) vcan0 18E#00005C
(1585903910.982163) vcan0 183#0000000700001013
(1585903910.982168) vcan0 143#6B6B00D1
(1585903910.984707) vcan0 244#0000000147
(1585903910.984772) vcan0 095#800007F400000008
(1585903910.986919) vcan0 039#002A
(1585903910.986925) vcan0 166#D0320018
(1585903910.987992) vcan0 158#0000000000000019
(1585903910.989057) vcan0 161#000005500108001C
(1585903910.989063) vcan0 191#010010A141000B
(1585903910.989065) vcan0 133#00000000A7
(1585903910.989067) vcan0 136#000200000000002A
(1585903910.989068) vcan0 13A#0000000000000028
(1585903910.990128) vcan0 13F#000000050000002E
(1585903910.990134) vcan0 164#0000C01AA8000004
(1585903910.990135) vcan0 17C#0000000010000021
(1585903910.990137) vcan0 18E#00006B
(1585903910.990139) vcan0 1CF#80050000003C
(1585903910.991200) vcan0 1DC#02000039
(1585903910.991206) vcan0 183#0000000500001024
(1585903910.992275) vcan0 143#6B6B00E0
(1585903910.994555) vcan0 095#800007F400000017
(1585903910.994560) vcan0 1A4#0000000800000010
(1585903910.995678) vcan0 1AA#7FFF000000006810
(1585903910.995683) vcan0 1B0#000F0000000157
(1585903910.995685) vcan0 1D0#000000000000000A
(1585903910.996858) vcan0 166#D0320027
(1585903910.997961) vcan0 158#0000000000000028
(1585903910.999032) vcan0 161#000005500108002B
(1585903910.999038) vcan0 191#010010A141001A
(1585903910.999040) vcan0 133#00000000B6
(1585903910.999042) vcan0 136#0002000000000039
(1585903910.999043) vcan0 13A#0000000000000037
(1585903910.999954) vcan0 244#00000001ED
(1585903911.000379) vcan0 13F#000000050000003D
(1585903911.000384) vcan0 164#0000C01AA8000013
(1585903911.000386) vcan0 17C#0000000010000030
(1585903911.000388) vcan0 039#0039
(1585903911.000389) vcan0 18E#00007A
(1585903911.000391) vcan0 294#040B0002CF5A002C
(1585903911.001458) vcan0 21E#03E8374522062F
(1585903911.001463) vcan0 183#0000000300001035
(1585903911.002530) vcan0 143#6B6B00FF
(1585903911.004774) vcan0 095#800007F400000026
(1585903911.006920) vcan0 166#D0320036
(1585903911.007986) vcan0 158#0000000000000037
(1585903911.009995) vcan0 161#000005500108003A
(1585903911.010001) vcan0 191#010010A1410029
(1585903911.010003) vcan0 133#0000000089
(1585903911.010004) vcan0 136#000200000000000C
(1585903911.010006) vcan0 13A#000000000000000A
(1585903911.010007) vcan0 13F#0000000500000000
(1585903911.010009) vcan0 164#0000C01AA8000022
(1585903911.010010) vcan0 17C#0000000010000003
(1585903911.010012) vcan0 18E#00004D
(1585903911.011084) vcan0 1CF#80050000000F
(1585903911.011090) vcan0 1DC#0200000C
(1585903911.011092) vcan0 183#0000000A00001001
(1585903911.012160) vcan0 143#6B6B00C2
(1585903911.013231) vcan0 039#000C
(1585903911.013237) vcan0 333#0000000000001E
(1585903911.014305) vcan0 095#800007F400000035
(1585903911.015181) vcan0 244#000000013F
(1585903911.015754) vcan0 1A4#000000080000002F
(1585903911.015760) vcan0 1AA#7FFF000000006720
(1585903911.015762) vcan0 1B0#000F0000000166
(1585903911.015763) vcan0 1D0#000000000000000A
(1585903911.016833) vcan0 166#D0320009
(1585903911.017940) vcan0 158#000000000000000A
(1585903911.019033) vcan0 161#000005500108000D
(1585903911.019043) vcan0 191#010010A1410038
(1585903911.019045) vcan0 133#0000000098
(1585903911.019046) vcan0 136#000200000000001B
(1585903911.019048) vcan0 13A#0000000000000019
(1585903911.020215) vcan0 13F#000000050000001F
(1585903911.020233) vcan0 164#0000C01AA8000031
(1585903911.020249) vcan0 17C#0000000010000012
(1585903911.020252) vcan0 18E#00005C
(1585903911.022441) vcan0 183#0000000700001013
(1585903911.022446) vcan0 143#6B6B00D1
(1585903911.024616) vcan0 095#800007F400000008
(1585903911.027657) vcan0 166#D0320018
(1585903911.028810) vcan0 158#0000000000000019
(1585903911.028876) vcan0 161#000005500108001C
(1585903911.028885) vcan0 191#010010A141000B
(1585903911.028892) vcan0 133#00000000A7
(1585903911.028898) vcan0 136#000200000000002A
(1585903911.030024) vcan0 13A#0000000000000028
(1585903911.030047) vcan0 13F#000000050000002E
(1585903911.030055) vcan0 164#0000C01AA8000004
(1585903911.030061) vcan0 17C#0000000010000021
(1585903911.030067) vcan0 18E#00006B
(1585903911.030520) vcan0 244#00000001E4
(1585903911.032352) vcan0 1CF#80050000001E
(1585903911.032377) vcan0 1DC#0200001B
(1585903911.032384) vcan0 320#000012
(1585903911.032391) vcan0 324#7465000000000E1A
(1585903911.032397) vcan0 37C#FD00FD00097F001A
(1585903911.032403) vcan0 183#0000000500001024
(1585903911.032410) vcan0 40C#0236323239533039
(1585903911.032416) vcan0 454#23EF36
(1585903911.032422) vcan0 143#6B6B00E0
(1585903911.034696) vcan0 095#800007F400000017
(1585903911.034720) vcan0 039#001B
(1585903911.034725) vcan0 1A4#000000080000003E
(1585903911.035834) vcan0 1AA#7FFF00000000673F
(1585903911.035853) vcan0 1B0#000F0000000175
(1585903911.035858) vcan0 1D0#000000000000000A
(1585903911.036964) vcan0 166#D0320027
(1585903911.038079) vcan0 158#0000000000000028
(1585903911.038096) vcan0 161#000005500108002B
(1585903911.039231) vcan0 191#010010A141001A
(1585903911.039248) vcan0 133#00000000B6
(1585903911.039253) vcan0 136#0002000000000039
(1585903911.039257) vcan0 13A#0000000000000037
(1585903911.040342) vcan0 13F#000000050000003D
(1585903911.040358) vcan0 164#0000C01AA8000013
(1585903911.040363) vcan0 17C#0000000010000030
(1585903911.040367) vcan0 18E#00007A
(1585903911.040372) vcan0 294#040B0002CF5A003B
(1585903911.040775) vcan0 244#0000000140
(1585903911.041478) vcan0 21E#03E8374522063E
(1585903911.041497) vcan0 183#0000000B0000103D
(1585903911.042582) vcan0 143#6B6B00FF
(1585903911.044761) vcan0 095#800007F400000026
(1585903911.046919) vcan0 166#D0320036
(1585903911.048007) vcan0 158#0000000000000037
(1585903911.049090) vcan0 161#000005500108003A
(1585903911.049101) vcan0 191#010010A1410029
(1585903911.049104) vcan0 164#0000C01AA8000022
(1585903911.049107) vcan0 133#0000000089
(1585903911.049110) vcan0 136#000200000000000C
(1585903911.050960) vcan0 13A#000000000000000A
(1585903911.050970) vcan0 13F#0000000500000000
(1585903911.050973) vcan0 17C#0000000010000003
(1585903911.050976) vcan0 18E#00004D
(1585903911.050979) vcan0 1CF#80050000002D
(1585903911.050982) vcan0 1DC#0200002A
(1585903911.050985) vcan0 183#0000000800001003
(1585903911.052126) vcan0 143#6B6B00C2
(1585903911.054350) vcan0 095#800007F400000035
(1585903911.054359) vcan0 039#002A
(1585903911.055438) vcan0 1A4#0000000800000001
(1585903911.055447) vcan0 1AA#7FFF000000006801
(1585903911.055449) vcan0 1B0#000F0000000148
(1585903911.055452) vcan0 1D0#000000000000000A
(1585903911.056027) vcan0 244#00000001E5
(1585903911.056798) vcan0 166#D0320009
(1585903911.057872) vcan0 158#000000000000000A
(1585903911.058942) vcan0 161#000005500108000D
(1585903911.058950) vcan0 191#010010A1410038
(1585903911.058953) vcan0 133#0000000098
(1585903911.058955) vcan0 136#000200000000001B
(1585903911.060022) vcan0 13A#0000000000000019
(1585903911.060030) vcan0 13F#000000050000001F
(1585903911.060032) vcan0 164#0000C01AA9000030
(1585903911.060034) vcan0 17C#0000000010000012
(1585903911.060037) vcan0 18E#00005C
(1585903911.061114) vcan0 309#00000000000000A2
(1585903911.061122) vcan0 428#01040000521C01
(1585903911.061125) vcan0 405#000004000000000B
(1585903911.063079) vcan0 183#0000000600001014
(1585903911.063088) vcan0 143#6B6B00D1
(1585903911.064165) vcan0 095#800007F400000008
(1585903911.067352) vcan0 166#D0320018
(1585903911.067360) vcan0 305#8026
(1585903911.068476) vcan0 158#0000000000000019
(1585903911.068484) vcan0 161#000005500108001C
(1585903911.068486) vcan0 191#010010A141000B
(1585903911.069597) vcan0 164#0000C01AA8000004
(1585903911.069603) vcan0 133#00000000A7
(1585903911.069605) vcan0 136#000200000000002A
(1585903911.069606) vcan0 13A#0000000000000028
(1585903911.069614) vcan0 13F#000000050000002E
(1585903911.070779) vcan0 17C#0000000010000021
(1585903911.070788) vcan0 18E#00006B
(1585903911.070790) vcan0 1CF#80050000003C
(1585903911.070791) vcan0 1DC#02000039
(1585903911.071436) vcan0 244#000000011C
(1585903911.071980) vcan0 183#0000000C0000102D
(1585903911.071991) vcan0 143#6B6B00E0
(1585903911.074118) vcan0 095#800007F400000017
(1585903911.075187) vcan0 1A4#0000000800000010
(1585903911.075193) vcan0 1AA#7FFF000000006810
(1585903911.075195) vcan0 1B0#000F0000000157
(1585903911.075197) vcan0 039#0039
(1585903911.076844) vcan0 1D0#000000000000000A
(1585903911.076850) vcan0 166#D0320027
(1585903911.078002) vcan0 158#0000000000000028
(1585903911.078037) vcan0 161#000005500108002B
(1585903911.079156) vcan0 191#010010A141001A
(1585903911.079162) vcan0 133#00000000B6
(1585903911.079164) vcan0 136#0002000000000039
(1585903911.079165) vcan0 13A#0000000000000037
(1585903911.080305) vcan0 13F#000000050000003D
(1585903911.080335) vcan0 164#0000C01AA8000013
(1585903911.080345) vcan0 17C#0000000010000030
(1585903911.080370) vcan0 18E#00007A
(1585903911.080372) vcan0 294#040B0002CF5A000E
(1585903911.081439) vcan0 21E#03E83745220601
(1585903911.081445) vcan0 183#000000090000103F
(1585903911.081945) vcan0 244#000000013A
(1585903911.082516) vcan0 143#6B6B00FF
(1585903911.084860) vcan0 095#800007F400000026
(1585903911.087024) vcan0 166#D0320036
(1585903911.088136) vcan0 158#0000000000000037
(1585903911.088142) vcan0 161#000005500108003A
(1585903911.089282) vcan0 191#010010A1410029
(1585903911.089310) vcan0 164#0000C01AA8000022
(1585903911.089335) vcan0 133#0000000089
(1585903911.089337) vcan0 136#000200000000000C
(1585903911.089339) vcan0 13A#000000000000000A
(1585903911.089340) vcan0 039#000C
(1585903911.090403) vcan0 13F#0000000500000000
(1585903911.090408) vcan0 17C#0000000010000003
(1585903911.090410) vcan0 18E#00004D
(1585903911.090412) vcan0 1CF#80050000000F
(1585903911.090413) vcan0 1DC#0200000C
(1585903911.091476) vcan0 183#0000000E0000100D
(1585903911.092541) vcan0 143#6B6B00C2
(1585903911.094746) vcan0 095#800007F400000035
(1585903911.094752) vcan0 1A4#000000080000002F
(1585903911.095906) vcan0 1AA#7FFF000000006720
(1585903911.095911) vcan0 1B0#000F0000000166
(1585903911.095913) vcan0 1D0#000000000000000A
(1585903911.096981) vcan0 166#D0320009
(1585903911.097165) vcan0 244#0000000122
(1585903911.098054) vcan0 158#000000000000000A
(1585903911.098059) vcan0 161#000005500108000D
(1585903911.099127) vcan0 191#010010A1410038
(1585903911.099132) vcan0 133#0000000098
(1585903911.099134) vcan0 136#000200000000001B
(1585903911.099136) vcan0 13A#0000000000000019
(1585903911.100206) vcan0 13F#000000050000001F
(1585903911.100211) vcan0 164#0000C01AA8000031
(1585903911.100213) vcan0 17C#0000000010000012
(1585903911.100215) vcan0 18E#00005C
(1585903911.102428) vcan0 183#0000000A00001010
(1585903911.102434) vcan0 143#6B6B00D1
(1585903911.103502) vcan0 039#001B
(1585903911.104574) vcan0 095#800007F400000008
(1585903911.106962) vcan0 166#D0320018
(1585903911.108028) vcan0 158#0000000000000019
(1585903911.108033) vcan0 161#000005500108001C
(1585903911.109096) vcan0 191#010010A141000B
(1585903911.109102) vcan0 164#0000C01AA8000004
(1585903911.109104) vcan0 133#00000000A7
(1585903911.109105) vcan0 136#000200000000002A
(1585903911.110167) vcan0 13A#0000000000000028
(1585903911.110173) vcan0 13F#000000050000002E
(1585903911.110175) vcan0 17C#0000000010000021
(1585903911.110176) vcan0 18E#00006B
(1585903911.110178) vcan0 1CF#80050000001E
(1585903911.111240) vcan0 1DC#0200001B
(1585903911.111246) vcan0 183#0000000700001022
(1585903911.112308) vcan0 143#6B6B00E0
(1585903911.112516) vcan0 244#0000000149
(1585903911.113373) vcan0 333#0000000000002D
(1585903911.114443) vcan0 095#800007F400000017
(1585903911.115509) vcan0 1A4#000000080000003E
(1585903911.115515) vcan0 1AA#7FFF00000000673F
(1585903911.115517) vcan0 1B0#000F0000000175
(1585903911.115519) vcan0 1D0#000000000000000A
(1585903911.116581) vcan0 039#002A
(1585903911.116586) vcan0 166#D0320027
(1585903911.118706) vcan0 158#0000000000000028
(1585903911.118713) vcan0 161#000005500108002B
(1585903911.118715) vcan0 191#010010A141001A
(1585903911.118716) vcan0 133#00000000B6
(1585903911.121194) vcan0 136#0002000000000039
(1585903911.121202) vcan0 13A#0000000000000037
(1585903911.121203) vcan0 13F#000000050000003D
(1585903911.121210) vcan0 164#0000C01AA8000013
(1585903911.121212) vcan0 17C#0000000010000030
(1585903911.121213) vcan0 18E#00007A
(1585903911.121215) vcan0 294#040B0002CF5A001D
(1585903911.121217) vcan0 21E#03E83745220610
(1585903911.122293) vcan0 183#0000000500001033
(1585903911.122305) vcan0 143#6B6B00FF
(1585903911.122673) vcan0 244#000000019A
(1585903911.124448) vcan0 095#800007F400000026
(1585903911.126578) vcan0 166#D0320036
(1585903911.128704) vcan0 158#0000000000000037
(1585903911.128710) vcan0 161#000005500108003A
(1585903911.128712) vcan0 191#010010A1410029
(1585903911.128714) vcan0 164#0000C01AA8000022
(1585903911.129880) vcan0 133#0000000089
(1585903911.129912) vcan0 136#000200000000000C
(1585903911.129914) vcan0 13A#000000000000000A
(1585903911.129915) vcan0 13F#0000000500000000
(1585903911.129917) vcan0 17C#0000000010000003
(1585903911.129919) vcan0 18E#00004D
(1585903911.130986) vcan0 1CF#80050000002D
(1585903911.130992) vcan0 1DC#0200002A
(1585903911.130994) vcan0 320#000021
(1585903911.130996) vcan0 324#7465000000000E29
(1585903911.130997) vcan0 37C#FD00FD00097F0029
(1585903911.132065) vcan0 183#0000000300001008
(1585903911.132070) vcan0 143#6B6B00C2
(1585903911.134538) vcan0 095#800007F400000035
(1585903911.135693) vcan0 1A4#0000000800000001
(1585903911.135699) vcan0 1AA#7FFF000000006801
(1585903911.135701) vcan0 1B0#000F0000000148
(1585903911.135703) vcan0 1D0#000000000000000A
(1585903911.135705) vcan0 039#0039
(1585903911.136875) vcan0 166#D0320009
(1585903911.137967) vcan0 244#00000001DD
(1585903911.138012) vcan0 158#000000000000000A
(1585903911.139095) vcan0 161#000005500108000D
(1585903911.139101) vcan0 191#010010A1410038
(1585903911.139103) vcan0 133#0000000098
(1585903911.139104) vcan0 136#000200000000001B
(1585903911.139106) vcan0 13A#0000000000000019
(1585903911.140168) vcan0 13F#000000050000001F
(1585903911.140174) vcan0 164#0000C01AA8000031
(1585903911.140175) vcan0 17C#0000000010000012
(1585903911.140177) vcan0 18E#00005C
(1585903911.142247) vcan0 183#0000000A00001010
(1585903911.142253) vcan0 143#6B6B00D1
(1585903911.144714) vcan0 095#800007F400000008
(1585903911.146918) vcan0 166#D0320018
(1585903911.147989) vcan0 039#000C
(1585903911.147994) vcan0 158#0000000000000019
(1585903911.148757) vcan0 244#000000019F
(1585903911.149272) vcan0 161#000005500108001C
(1585903911.149292) vcan0 191#010010A141000B
(1585903911.149293) vcan0 164#0000C01AA8000004
(1585903911.149295) vcan0 133#00000000A7
(1585903911.149297) vcan0 136#000200000000002A
(1585903911.149298) vcan0 13A#0000000000000028
(1585903911.150417) vcan0 13F#000000050000002E
(1585903911.150422) vcan0 17C#0000000010000021
(1585903911.150424) vcan0 18E#00006B
(1585903911.150425) vcan0 1CF#80050000003C
(1585903911.150427) vcan0 1DC#02000039
(1585903911.151495) vcan0 183#0000000700001022
(1585903911.152567) vcan0 143#6B6B00E0
(1585903911.154863) vcan0 095#800007F400000017
(1585903911.154904) vcan0 1A4#0000000800000010
(1585903911.154906) vcan0 1AA#7FFF000000006810
(1585903911.155967) vcan0 1B0#000F0000000157
(1585903911.155972) vcan0 1D0#000000000000000A
(1585903911.157034) vcan0 166#D0320027
(1585903911.158099) vcan0 158#0000000000000028
(1585903911.158105) vcan0 161#000005500108002B
(1585903911.159937) vcan0 244#000000019D
(1585903911.159971) vcan0 191#010010A141001A
(1585903911.159975) vcan0 133#00000000B6
(1585903911.159977) vcan0 136#0002000000000039
(1585903911.159978) vcan0 13A#0000000000000037
(1585903911.159980) vcan0 13F#000000050000003D
(1585903911.159981) vcan0 164#0000C01AA8000013
(1585903911.159983) vcan0 17C#0000000010000030
(1585903911.159984) vcan0 18E#00007A
(1585903911.161095) vcan0 294#040B0002CF5A002C
(1585903911.161100) vcan0 21E#03E8374522062F
(1585903911.161102) vcan0 309#00000000000000B1
(1585903911.162248) vcan0 039#001B
(1585903911.162254) vcan0 183#0000000500001033
(1585903911.162256) vcan0 143#6B6B00FF
(1585903911.164467) vcan0 095#800007F400000026
(1585903911.166607) vcan0 166#D0320036
(1585903911.168752) vcan0 158#0000000000000037
(1585903911.168758) vcan0 161#000005500108003A
(1585903911.168760) vcan0 191#010010A1410029
(1585903911.168770) vcan0 164#0000C01AA9000021
(1585903911.168773) vcan0 133#0000000089
(1585903911.169844) vcan0 136#000200000000000C
(1585903911.169849) vcan0 13A#000000000000000A
(1585903911.169851) vcan0 13F#0000000500000000
(1585903911.169853) vcan0 17C#0000000010000003
(1585903911.170929) vcan0 18E#00004D
(1585903911.170936) vcan0 1CF#80050000000F
(1585903911.170938) vcan0 1DC#0200000C
(1585903911.170940) vcan0 183#0000000B00001000
(1585903911.172010) vcan0 143#6B6B00C2
(1585903911.174301) vcan0 095#800007F400000035
(1585903911.174313) vcan0 305#8035
(1585903911.175201) vcan0 244#00000001BC
(1585903911.175738) vcan0 1A4#000000080000002F
(1585903911.175747) vcan0 1AA#7FFF000000006720
(1585903911.175749) vcan0 1B0#000F0000000166
(1585903911.175751) vcan0 1D0#000000000000000A
(1585903911.176813) vcan0 166#D0320009
(1585903911.178298) vcan0 158#000000000000000A
(1585903911.178304) vcan0 161#000005500108000D
(1585903911.178306) vcan0 191#010010A1410038
(1585903911.179376) vcan0 133#0000000098
(1585903911.179382) vcan0 136#000200000000001B
(1585903911.179384) vcan0 13A#0000000000000019
(1585903911.179385) vcan0 13F#000000050000001F
(1585903911.180454) vcan0 164#0000C01AA8000031
(1585903911.180460) vcan0 17C#0000000010000012
(1585903911.180462) vcan0 18E#00005C
(1585903911.181530) vcan0 039#002A
(1585903911.181536) vcan0 183#0000000800001012
(1585903911.182603) vcan0 143#6B6B00D1
(1585903911.184936) vcan0 095#800007F400000008
(1585903911.187080) vcan0 166#D0320018
(1585903911.188222) vcan0 158#0000000000000019
(1585903911.188227) vcan0 161#000005500108001C
(1585903911.189376) vcan0 191#010010A141000B
(1585903911.189408) vcan0 164#0000C01AA8000004
(1585903911.189410) vcan0 133#00000000A7
(1585903911.189411) vcan0 136#000200000000002A
(1585903911.189413) vcan0 13A#0000000000000028
(1585903911.190476) vcan0 13F#000000050000002E
(1585903911.190481) vcan0 17C#0000000010000021
(1585903911.190483) vcan0 18E#00006B
(1585903911.190485) vcan0 1CF#80050000001E
(1585903911.190487) vcan0 1DC#0200001B
(1585903911.190556) vcan0 244#0000000193
(1585903911.191549) vcan0 183#0000000600001023
(1585903911.192615) vcan0 143#6B6B00E0
(1585903911.194591) vcan0 095#800007F400000017
(1585903911.195692) vcan0 1A4#000000080000003E
(1585903911.195697) vcan0 1AA#7FFF00000000673F
(1585903911.195699) vcan0 1B0#000F0000000175
(1585903911.195701) vcan0 1D0#000000000000000A
(1585903911.196876) vcan0 039#0039
(1585903911.196910) vcan0 166#D0320027
(1585903911.197977) vcan0 158#0000000000000028
(1585903911.199048) vcan0 161#000005500108002B
(1585903911.199054) vcan0 191#010010A141001A
(1585903911.199056) vcan0 133#00000000B6
(1585903911.199057) vcan0 136#0002000000000039
(1585903911.199059) vcan0 13A#0000000000000037
(1585903911.200171) vcan0 13F#000000050000003D
(1585903911.200178) vcan0 164#0000C01AA8000013
(1585903911.200180) vcan0 17C#0000000010000030
(1585903911.200182) vcan0 18E#00007A
(1585903911.200184) vcan0 294#040B0002CF5A003B
(1585903911.201823) vcan0 244#0000000137
(1585903911.201854) vcan0 21E#03E8374522063E
(1585903911.201859) vcan0 183#0000000C0000103C
(1585903911.202934) vcan0 143#6B6B00FF
(1585903911.204006) vcan0 095#800007F800000022
(1585903911.207195) vcan0 166#D0320036
(1585903911.208261) vcan0 158#0000000000000037
(1585903911.208277) vcan0 161#000005500108003A
(1585903911.208279) vcan0 191#010010A1410029
(1585903911.210171) vcan0 164#0000C01AA8000022
(1585903911.210177) vcan0 133#0000000089
(1585903911.210179) vcan0 039#000C
(1585903911.210180) vcan0 136#000200000000000C
(1585903911.210182) vcan0 13A#000000000000000A
(1585903911.210183) vcan0 13F#0000000500000000
(1585903911.210185) vcan0 17C#0000000010000003
(1585903911.210187) vcan0 18E#00004D
(1585903911.211366) vcan0 1CF#80050000002D
(1585903911.211401) vcan0 1DC#0200002A
(1585903911.211402) vcan0 183#0000000900001002
(1585903911.212482) vcan0 143#6B6B00C2
(1585903911.213555) vcan0 333#0000000000003C
(1585903911.214678) vcan0 095#800007F800000031
(1585903911.214683) vcan0 1A4#0000000800000001
(1585903911.215784) vcan0 1AA#7FFF000000006801
(1585903911.215790) vcan0 1B0#000F0000000148
(1585903911.215792) vcan0 1D0#000000000000000A
(1585903911.216915) vcan0 166#D0320009
(1585903911.217551) vcan0 244#0000000115
(1585903911.217989) vcan0 158#000000000000000A
(1585903911.219063) vcan0 161#000005500108000D
(1585903911.219068) vcan0 191#010010A1410038
(1585903911.219070) vcan0 133#0000000098
(1585903911.219071) vcan0 136#000200000000001B
(1585903911.219073) vcan0 13A#0000000000000019
(1585903911.220142) vcan0 13F#000000050000001F
(1585903911.220147) vcan0 164#0000C01AA8000031
(1585903911.220154) vcan0 17C#0000000010000012
(1585903911.220155) vcan0 18E#00005C
(1585903911.222281) vcan0 183#0000000E0000101C
(1585903911.222287) vcan0 143#6B6B00D1
(1585903911.222289) vcan0 039#001B
(1585903911.224416) vcan0 095#800007F800000004
(1585903911.227214) vcan0 166#D0320018
(1585903911.228304) vcan0 158#0000000000000019
(1585903911.228311) vcan0 161#000005500108001C
(1585903911.228313) vcan0 191#010090A1410003
(1585903911.229449) vcan0 133#00000000A7
(1585903911.229461) vcan0 136#000200000000002A
(1585903911.229463) vcan0 13A#0000000000000028
(1585903911.229465) vcan0 13F#000000050000002E
(1585903911.230613) vcan0 164#0000C01AA8000004
(1585903911.230626) vcan0 17C#0000000010000021
(1585903911.230628) vcan0 18E#00006B
(1585903911.230630) vcan0 1CF#80050000003C
(1585903911.230632) vcan0 1DC#02000039
(1585903911.230633) vcan0 320#000030
(1585903911.231988) vcan0 324#7465000000000E38
(1585903911.232001) vcan0 37C#FD00FD00097F0038
(1585903911.232003) vcan0 183#0000000A0000102F
(1585903911.233218) vcan0 244#00000001FE
(1585903911.233285) vcan0 143#6B6B00E0
(1585903911.234580) vcan0 095#800007F800000013
(1585903911.234594) vcan0 1A4#0000000800000010
(1585903911.235905) vcan0 1AA#7FFF000000006810
(1585903911.235920) vcan0 1B0#000F0000000157
(1585903911.235922) vcan0 1D0#000000000000000A
(1585903911.237066) vcan0 039#002A
(1585903911.237080) vcan0 166#D0320027
(1585903911.238423) vcan0 158#0000000000000028
(1585903911.238437) vcan0 161#000005500108002B
(1585903911.238439) vcan0 191#010090A1410012
(1585903911.239590) vcan0 133#00000000B6
(1585903911.239603) vcan0 136#0002000000000039
(1585903911.239606) vcan0 13A#0000000000000037
(1585903911.239607) vcan0 13F#000000050000003D
(1585903911.239609) vcan0 164#0000C01AA9000012
(1585903911.240679) vcan0 17C#0000000010000030
(1585903911.240689) vcan0 18E#00007A
(1585903911.240691) vcan0 294#040B0002CF5A000E
(1585903911.240692) vcan0 21E#03E83745220601
(1585903911.241755) vcan0 183#0000000F00001039
(1585903911.242822) vcan0 143#6B6B00FF
(1585903911.244079) vcan0 244#0000000110
(1585903911.244087) vcan0 095#800007F800000022
(1585903911.246560) vcan0 166#D0320036
(1585903911.247889) vcan0 158#0000000000000037
(1585903911.249045) vcan0 161#000005500108003A
(1585903911.249060) vcan0 191#010090A1410021
(1585903911.249062) vcan0 164#0000C01AA8000022
(1585903911.249064) vcan0 133#0000000089
(1585903911.249066) vcan0 136#000200000000000C
(1585903911.250332) vcan0 13A#000000000000000A
(1585903911.250346) vcan0 13F#0000000500000000
(1585903911.250348) vcan0 17C#0000000010000003
(1585903911.250350) vcan0 18E#00004D
(1585903911.250351) vcan0 1CF#80050000000F
(1585903911.250353) vcan0 1DC#0200000C
(1585903911.251652) vcan0 183#0000001300001007
(1585903911.251668) vcan0 039#0039
(1585903911.252829) vcan0 143#6B6B00C2
(1585903911.254169) vcan0 095#800007F400000035
(1585903911.255336) vcan0 1A4#000000080000002F
(1585903911.255350) vcan0 1AA#7FFF000000006720
(1585903911.255352) vcan0 1B0#000F0000000166
(1585903911.255354) vcan0 1D0#000000000000000A
(1585903911.257486) vcan0 166#D0320009
(1585903911.258560) vcan0 158#000000000000000A
(1585903911.258566) vcan0 161#000005500108000D
(1585903911.258568) vcan0 191#010090A1410030
(1585903911.258570) vcan0 133#0000000098
(1585903911.259326) vcan0 244#0000000193
(1585903911.259795) vcan0 136#000200000000001B
(1585903911.259800) vcan0 13A#0000000000000019
(1585903911.259802) vcan0 13F#000000050000001F
(1585903911.259803) vcan0 164#0000C01AA8000031
(1585903911.259805) vcan0 17C#0000000010000012
(1585903911.261425) vcan0 18E#00005C
(1585903911.261431) vcan0 309#0000000000000084
(1585903911.261433) vcan0 183#0000000E0000101C
(1585903911.262534) vcan0 143#6B6B00D1
(1585903911.263827) vcan0 095#800007F400000008
(1585903911.266422) vcan0 039#000C
(1585903911.267733) vcan0 166#D0320018
(1585903911.269040) vcan0 158#0000000000000019
(1585903911.269055) vcan0 161#000005500108001C
(1585903911.269057) vcan0 191#010090A1410003
(1585903911.269059) vcan0 164#0000C01AA8000004
(1585903911.269060) vcan0 133#00000000A7
(1585903911.269062) vcan0 136#000200000000002A
(1585903911.269835) vcan0 244#0000000148
(1585903911.270433) vcan0 13A#0000000000000028
(1585903911.270443) vcan0 13F#000000050000002E
(1585903911.270445) vcan0 17C#0000000010000021
(1585903911.270447) vcan0 18E#00006B
(1585903911.270448) vcan0 1CF#80050000001E
(1585903911.270450) vcan0 1DC#0200001B
(1585903911.271579) vcan0 183#0000000A0000102F
(1585903911.272662) vcan0 143#6B6B00E0
(1585903911.274794) vcan0 095#800007F400000017
(1585903911.274805) vcan0 1A4#000000080000003E
(1585903911.275868) vcan0 1AA#7FFF00000000673F
(1585903911.275875) vcan0 1B0#000F0000000175
(1585903911.275877) vcan0 1D0#000000000000000A
(1585903911.277710) vcan0 166#D0320027
(1585903911.278903) vcan0 158#0000000000000028
(1585903911.278918) vcan0 161#000005500108002B
(1585903911.278920) vcan0 191#010090A1410012
(1585903911.278921) vcan0 133#00000000B6
(1585903911.278923) vcan0 136#0002000000000039
(1585903911.278925) vcan0 039#001B
(1585903911.280231) vcan0 13A#0000000000000037
(1585903911.280244) vcan0 13F#000000050000003D
(1585903911.280247) vcan0 164#0000C01AA8000013
(1585903911.280248) vcan0 17C#0000000010000030
(1585903911.280250) vcan0 18E#00007A
(1585903911.281429) vcan0 294#040B0002CF5A001D
(1585903911.281443) vcan0 305#8008
(1585903911.281445) vcan0 21E#03E83745220610
(1585903911.281447) vcan0 183#0000000700001031
(1585903911.282553) vcan0 143#6B6B00FF
(1585903911.283838) vcan0 095#800007F400000026
(1585903911.284946) vcan0 5A1#960000000000622F
(1585903911.285305) vcan0 244#00000001FC
(1585903911.286995) vcan0 166#D0320036
(1585903911.288102) vcan0 158#0000000000000037
(1585903911.288116) vcan0 161#000005500108003A
(1585903911.289413) vcan0 191#010090A1410021
(1585903911.289427) vcan0 133#0000000089
(1585903911.289429) vcan0 136#000200000000000C
(1585903911.289431) vcan0 13A#000000000000000A
(1585903911.289433) vcan0 13F#0000000500000000
(1585903911.290497) vcan0 164#0000C01AA8000022
(1585903911.290508) vcan0 17C#0000000010000003
(1585903911.290510) vcan0 18E#00004D
(1585903911.290512) vcan0 1CF#80050000002D
(1585903911.290513) vcan0 1DC#0200002A
(1585903911.291576) vcan0 183#0000000500001006
(1585903911.292642) vcan0 143#6B6B00C2
(1585903911.292648) vcan0 039#002A
(1585903911.294259) vcan0 095#800007F400000035
(1585903911.295429) vcan0 1A4#0000000800000001
(1585903911.295443) vcan0 1AA#7FFF000000006801
(1585903911.295445) vcan0 1B0#000F0000000148
(1585903911.295446) vcan0 1D0#000000000000000A
(1585903911.297835) vcan0 166#D0320009
(1585903911.297849) vcan0 158#000000000000000A
(1585903911.298951) vcan0 161#000005500108000D
(1585903911.298966) vcan0 191#010090A1410030
(1585903911.298968) vcan0 133#0000000098
(1585903911.298970) vcan0 136#000200000000001B
(1585903911.300074) vcan0 13A#0000000000000019
(1585903911.300088) vcan0 13F#000000050000001F
(1585903911.300090) vcan0 164#0000C01AA8000031
(1585903911.300092) vcan0 17C#0000000010000012
(1585903911.300094) vcan0 18E#00005C
(1585903911.300790) vcan0 244#000000010A
(1585903911.301367) vcan0 183#0000000B0000101F
(1585903911.302476) vcan0 143#6B6B00D1
(1585903911.304961) vcan0 095#800007F400000008
(1585903911.306053) vcan0 039#0039
(1585903911.307136) vcan0 166#D0320018
(1585903911.308237) vcan0 158#0000000000000019
(1585903911.308243) vcan0 161#000005500108001C
(1585903911.308245) vcan0 191#010090A1410003
(1585903911.309307) vcan0 133#00000000A7
(1585903911.309313) vcan0 136#000200000000002A
(1585903911.309315) vcan0 13A#0000000000000028
(1585903911.309317) vcan0 13F#000000050000002E
(1585903911.310379) vcan0 164#0000C01AA8000004
(1585903911.310385) vcan0 17C#0000000010000021
(1585903911.310387) vcan0 18E#00006B
(1585903911.310388) vcan0 1CF#80050000003C
(1585903911.310390) vcan0 1DC#02000039
(1585903911.311738) vcan0 244#000000014A
(1585903911.311746) vcan0 183#0000000800001021
(1585903911.313040) vcan0 143#6B6B00E0
(1585903911.313054) vcan0 333#0000000000000F
(1585903911.314351) vcan0 095#800007F400000017
(1585903911.315622) vcan0 1A4#0000000800000010
(1585903911.315636) vcan0 1AA#7FFF000000006810
(1585903911.315638) vcan0 1B0#000F0000000157
(1585903911.315640) vcan0 1D0#000000000000000A
(1585903911.316967) vcan0 166#D0320027
(1585903911.318289) vcan0 158#0000000000000028
(1585903911.318303) vcan0 161#000005500108002B
(1585903911.318305) vcan0 191#010090A1410012
(1585903911.319448) vcan0 133#00000000B6
(1585903911.319463) vcan0 136#0002000000000039
(1585903911.319465) vcan0 13A#0000000000000037
(1585903911.319467) vcan0 13F#000000050000003D
(1585903911.320571) vcan0 164#0000C01AA8000013
(1585903911.320586) vcan0 17C#0000000010000030
(1585903911.320588) vcan0 18E#00007A
(1585903911.320595) vcan0 294#040B0002CF5A002C
(1585903911.320596) vcan0 21E#03E8374522062F
(1585903911.321698) vcan0 183#0000000D0000103B
(1585903911.322782) vcan0 143#6B6B00FF
(1585903911.323857) vcan0 095#800007F400000026
(1585903911.325984) vcan0 039#000C
(1585903911.327741) vcan0 166#D0320036
(1585903911.327779) vcan0 244#0000000152
(1585903911.328826) vcan0 158#0000000000000037
(1585903911.328833) vcan0 161#000005500108003A
(1585903911.328835) vcan0 191#010090A1410021
(1585903911.328837) vcan0 133#0000000089
(1585903911.328839) vcan0 136#000200000000000C
(1585903911.329918) vcan0 13A#000000000000000A
(1585903911.329925) vcan0 13F#0000000500000000
(1585903911.329927) vcan0 164#0000C01AA8000022
(1585903911.329929) vcan0 17C#0000000010000003
(1585903911.329931) vcan0 18E#00004D
(1585903911.331022) vcan0 1CF#80050000000F
(1585903911.331033) vcan0 1DC#0200000C
(1585903911.331036) vcan0 320#000003
(1585903911.331037) vcan0 324#7465000000000E0B
(1585903911.331039) vcan0 37C#FD00FD00097F000B
(1585903911.332288) vcan0 183#0000000900001002
(1585903911.332301) vcan0 40C#033133383439000D
(1585903911.332304) vcan0 454#23EF09
(1585903911.332305) vcan0 143#6B6B00C2
(1585903911.334559) vcan0 095#800007F400000035
(1585903911.334573) vcan0 1A4#000000080000002F
(1585903911.335863) vcan0 1AA#7FFF000000006720
(1585903911.335877) vcan0 1B0#000F0000000166
(1585903911.335879) vcan0 1D0#000000000000000A
(1585903911.336985) vcan0 166#D0320009
(1585903911.338068) vcan0 158#000000000000000A
(1585903911.338082) vcan0 161#000005500108000D
(1585903911.339370) vcan0 191#010090A1410030
(1585903911.339385) vcan0 18E#00005C
(1585903911.339387) vcan0 133#0000000098
(1585903911.339389) vcan0 136#000200000000001B
(1585903911.339390) vcan0 13A#0000000000000019
(1585903911.339392) vcan0 039#001B
(1585903911.340464) vcan0 13F#000000050000001F
(1585903911.340475) vcan0 164#0000C01AA8000031
(1585903911.340477) vcan0 17C#0000000010000012
(1585903911.341539) vcan0 183#0000000600001014
(1585903911.342606) vcan0 143#6B6B00D1
(1585903911.343143) vcan0 244#0000000116
(1585903911.345145) vcan0 095#800007F400000008
(1585903911.347455) vcan0 166#D0320018
(1585903911.348549) vcan0 158#0000000000000019
(1585903911.348563) vcan0 161#000005500108001C
(1585903911.348565) vcan0 191#010090A1410003
(1585903911.348567) vcan0 164#0000C01AA8000004
(1585903911.349817) vcan0 133#00000000A7
(1585903911.349831) vcan0 136#000200000000002A
(1585903911.349833) vcan0 13A#0000000000000028
(1585903911.349835) vcan0 13F#000000050000002E
(1585903911.349837) vcan0 17C#0000000010000021
(1585903911.349838) vcan0 18E#00006B
(1585903911.350943) vcan0 1CF#80050000001E
(1585903911.350955) vcan0 1DC#0200001B
(1585903911.350958) vcan0 183#0000000C0000102D
(1585903911.352249) vcan0 143#6B6B00E0
(1585903911.354477) vcan0 095#800007F400000017
(1585903911.354511) vcan0 039#002A
(1585903911.355838) vcan0 1A4#000000080000003E
(1585903911.355853) vcan0 1AA#7FFF00000000673F
(1585903911.355855) vcan0 1B0#000F0000000175
(1585903911.355857) vcan0 1D0#000000000000000A
(1585903911.356929) vcan0 166#D0320027
(1585903911.358010) vcan0 158#0000000000000028
(1585903911.358553) vcan0 244#00000001DC
(1585903911.359189) vcan0 161#000005500108002B
(1585903911.359194) vcan0 191#010090A1410012
(1585903911.359197) vcan0 133#00000000B6
(1585903911.359199) vcan0 136#0002000000000039
(1585903911.359200) vcan0 13A#0000000000000037
(1585903911.360245) vcan0 13F#000000050000003D
(1585903911.360251) vcan0 164#0000C01AA8000013
(1585903911.360253) vcan0 17C#0000000010000030
(1585903911.360255) vcan0 18E#00007A
(1585903911.360257) vcan0 294#040B0002CF5A003B
(1585903911.362257) vcan0 21E#03E8374522063E
(1585903911.362263) vcan0 309#0000000000000093
(1585903911.362265) vcan0 428#01040000521C10
(1585903911.362267) vcan0 405#000004000000001A
(1585903911.362269) vcan0 183#000000090000103F
(1585903911.362270) vcan0 143#6B6B00FF
(1585903911.364715) vcan0 095#800007F400000026
(1585903911.367227) vcan0 166#D0320036
(1585903911.368393) vcan0 158#0000000000000037
(1585903911.368408) vcan0 161#000005500108003A
(1585903911.368410) vcan0 191#010090A1410021
(1585903911.368412) vcan0 039#0039
(1585903911.369700) vcan0 133#0000000089
(1585903911.369714) vcan0 136#000200000000000C
(1585903911.369717) vcan0 13A#000000000000000A
(1585903911.369718) vcan0 13F#0000000500000000
(1585903911.369725) vcan0 164#0000C01AA8000022
(1585903911.371013) vcan0 17C#0000000010000003
(1585903911.371027) vcan0 18E#00004D
(1585903911.371029) vcan0 1CF#80050000002D
(1585903911.371031) vcan0 1DC#0200002A
(1585903911.371033) vcan0 183#0000000E0000100D
(1585903911.372142) vcan0 143#6B6B00C2
(1585903911.374031) vcan0 244#00000001C1
(1585903911.374659) vcan0 095#800007F400000035
(1585903911.374670) vcan0 1A4#0000000800000001
(1585903911.375734) vcan0 1AA#7FFF000000006801
(1585903911.375740) vcan0 1B0#000F0000000148
(1585903911.375742) vcan0 1D0#000000000000000A
(1585903911.376804) vcan0 166#D0320009
(1585903911.378597) vcan0 158#000000000000000A
(1585903911.378605) vcan0 161#000005500108000D
(1585903911.378607) vcan0 191#010090A1410030
(1585903911.378609) vcan0 133#0000000098
(1585903911.379724) vcan0 136#000200000000001B
(1585903911.379731) vcan0 13A#0000000000000019
(1585903911.379734) vcan0 13F#000000050000001F
(1585903911.379735) vcan0 164#0000C01AA8000031
(1585903911.380826) vcan0 17C#0000000010000012
(1585903911.380833) vcan0 18E#00005C
(1585903911.381912) vcan0 183#0000000A00001010
(1585903911.381919) vcan0 039#000C
(1585903911.383012) vcan0 143#6B6B00D1
(1585903911.383024) vcan0 305#8017
(1585903911.384121) vcan0 095#800007F400000008
(1585903911.387485) vcan0 166#D0320018
(1585903911.388792) vcan0 158#0000000000000019
(1585903911.388806) vcan0 161#000005500108001C
(1585903911.388809) vcan0 191#010090A1410003
(1585903911.388810) vcan0 133#00000000A7
(1585903911.388812) vcan0 136#000200000000002A
(1585903911.389541) vcan0 244#00000001ED
(1585903911.390106) vcan0 13A#0000000000000028
(1585903911.390116) vcan0 13F#000000050000002E
(1585903911.390118) vcan0 164#0000C01AA8000004
(1585903911.390120) vcan0 17C#0000000010000021
(1585903911.390121) vcan0 18E#00006B
(1585903911.390123) vcan0 1CF#80050000003C
(1585903911.391188) vcan0 1DC#02000039
(1585903911.391196) vcan0 183#0000000700001022
(1585903911.392259) vcan0 143#6B6B00E0
(1585903911.394918) vcan0 095#800007F400000017
(1585903911.394924) vcan0 1A4#0000000800000010
(1585903911.394926) vcan0 1AA#7FFF000000006810
(1585903911.396206) vcan0 1B0#000F0000000157
(1585903911.396220) vcan0 1D0#000000000000000A
(1585903911.397324) vcan0 166#D0320027
(1585903911.398624) vcan0 158#0000000000000028
(1585903911.398638) vcan0 161#000005500108002B
(1585903911.398640) vcan0 191#010090A1410012
(1585903911.398642) vcan0 133#00000000B6
(1585903911.399894) vcan0 136#0002000000000039
(1585903911.399906) vcan0 039#001B
(1585903911.399908) vcan0 13A#0000000000000037
(1585903911.399910) vcan0 13F#000000050000003D
(1585903911.399912) vcan0 164#0000C01AA8000013
(1585903911.399913) vcan0 17C#0000000010000030
(1585903911.400031) vcan0 244#00000001E2
(1585903911.401009) vcan0 18E#00007A
(1585903911.401021) vcan0 294#040B0002CF5A000E
(1585903911.401022) vcan0 21E#03E83745220601
(1585903911.402234) vcan0 183#0000000D0000103B
(1585903911.402248) vcan0 143#6B6B00FF
(1585903911.404732) vcan0 095#800007F400000026
(1585903911.407153) vcan0 166#D0320036
(1585903911.408228) vcan0 158#0000000000000037
(1585903911.408234) vcan0 161#000005500108003A
(1585903911.409295) vcan0 191#010090A1410021
(1585903911.409301) vcan0 164#0000C01AA8000022
(1585903911.409303) vcan0 133#0000000089
(1585903911.409305) vcan0 136#000200000000000C
(1585903911.409307) vcan0 13A#000000000000000A
(1585903911.410900) vcan0 244#00000001A5
(1585903911.410908) vcan0 13F#0000000500000000
(1585903911.410911) vcan0 17C#0000000010000003
(1585903911.410913) vcan0 18E#00004D
(1585903911.410915) vcan0 1CF#80050000000F
(1585903911.410916) vcan0 1DC#0200000C
(1585903911.412209) vcan0 183#0000000900001002
(1585903911.412224) vcan0 039#002A
(1585903911.412226) vcan0 143#6B6B00C2
(1585903911.413526) vcan0 333#0000000000001E
(1585903911.414734) vcan0 095#800007F400000035
(1585903911.414749) vcan0 1A4#000000080000002F
(1585903911.415907) vcan0 1AA#7FFF000000006720
(1585903911.415943) vcan0 1B0#000F0000000166
(1585903911.415946) vcan0 1D0#000000000000000A
(1585903911.417091) vcan0 166#D0320009
(1585903911.418221) vcan0 158#000000000000000A
(1585903911.418227) vcan0 161#000005500108000D
(1585903911.419525) vcan0 191#010090A1410030
(1585903911.419539) vcan0 133#0000000098
(1585903911.419541) vcan0 136#000200000000001B
(1585903911.419543) vcan0 13A#0000000000000019
(1585903911.419545) vcan0 13F#000000050000001F
(1585903911.419551) vcan0 164#0000C01AA8000031
(1585903911.420846) vcan0 17C#0000000010000012
(1585903911.420860) vcan0 18E#00005C
(1585903911.422154) vcan0 183#0000000600001014
(1585903911.422168) vcan0 143#6B6B00D1
(1585903911.424363) vcan0 095#800007F400000008
(1585903911.426242) vcan0 244#0000000177
(1585903911.426750) vcan0 166#D0320018
(1585903911.428391) vcan0 158#0000000000000019
(1585903911.428398) vcan0 161#000005500108001C
(1585903911.428414) vcan0 191#010090A1410003
(1585903911.429493) vcan0 164#0000C01AA8000004
(1585903911.429500) vcan0 133#00000000A7
(1585903911.429502) vcan0 136#000200000000002A
(1585903911.429504) vcan0 13A#0000000000000028
(1585903911.429505) vcan0 13F#000000050000002E
(1585903911.430585) vcan0 17C#0000000010000021
(1585903911.430593) vcan0 18E#00006B
(1585903911.430595) vcan0 1CF#80050000001E
(1585903911.430597) vcan0 1DC#0200001B
(1585903911.430599) vcan0 320#000012
(1585903911.431713) vcan0 324#7465000000000E1A
(1585903911.431721) vcan0 37C#FD00FD00097F001A
(1585903911.431723) vcan0 039#0039
(1585903911.431750) vcan0 183#0000000C0000102D
(1585903911.433000) vcan0 143#6B6B00E0
(1585903911.434117) vcan0 095#800007F400000017
(1585903911.435395) vcan0 1A4#000000080000003E
(1585903911.435427) vcan0 1AA#7FFF00000000673F
(1585903911.435429) vcan0 1B0#000F0000000175
(1585903911.435431) vcan0 1D0#000000000000000A
(1585903911.436646) vcan0 244#000000013D
(1585903911.436717) vcan0 166#D0320027
(1585903911.438018) vcan0 158#0000000000000028
(1585903911.438032) vcan0 161#000005500108002B
(1585903911.439332) vcan0 191#010090A1410012
(1585903911.439346) vcan0 133#00000000B6
(1585903911.439348) vcan0 136#0002000000000039
(1585903911.439350) vcan0 13A#0000000000000037
(1585903911.439352) vcan0 13F#000000050000003D
(1585903911.440422) vcan0 164#0000C01AA9000012
(1585903911.440433) vcan0 17C#0000000010000030
(1585903911.440434) vcan0 18E#00007A
(1585903911.440436) vcan0 294#040B0002CF5A001D
(1585903911.441497) vcan0 21E#03E83745220610
(1585903911.441503) vcan0 183#000000090000103F
(1585903911.442565) vcan0 143#6B6B00FF
(1585903911.444265) vcan0 039#000C
(1585903911.444271) vcan0 095#800007F400000026
(1585903911.447718) vcan0 166#D0320036
(1585903911.448833) vcan0 158#0000000000000037
(1585903911.448848) vcan0 161#000005500108003A
(1585903911.448850) vcan0 191#010090A1410021
(1585903911.448852) vcan0 164#0000C01AA9000021
(1585903911.448853) vcan0 133#0000000089
(1585903911.450118) vcan0 136#000200000000000C
(1585903911.450129) vcan0 13A#000000000000000A
(1585903911.450131) vcan0 13F#0000000500000000
(1585903911.450133) vcan0 17C#0000000010000003
(1585903911.450135) vcan0 18E#00004D
(1585903911.450137) vcan0 1CF#80050000002D
(1585903911.451233) vcan0 1DC#0200002A
(1585903911.451247) vcan0 183#0000000E0000100D
(1585903911.452243) vcan0 244#0000000125
(1585903911.452319) vcan0 143#6B6B00C2
(1585903911.454719) vcan0 095#800007F400000035
(1585903911.454734) vcan0 1A4#0000000800000001
(1585903911.455836) vcan0 1AA#7FFF000000006801
(1585903911.455851) vcan0 1B0#000F0000000148
(1585903911.455853) vcan0 1D0#000000000000000A
(1585903911.456923) vcan0 166#D0320009
(1585903911.457996) vcan0 158#000000000000000A
(1585903911.459062) vcan0 161#000005500108000D
(1585903911.459068) vcan0 191#010090A1410030
(1585903911.459070) vcan0 039#001B
(1585903911.459072) vcan0 133#0000000098
(1585903911.459074) vcan0 136#000200000000001B
(1585903911.459075) vcan0 13A#0000000000000019
(1585903911.460878) vcan0 13F#000000050000001F
(1585903911.460884) vcan0 164#0000C01AA8000031
(1585903911.460886) vcan0 17C#0000000010000012
(1585903911.460887) vcan0 18E#00005C
(1585903911.460889) vcan0 309#00000000000000A2
(1585903911.462060) vcan0 183#0000000A00001010
(1585903911.462095) vcan0 143#6B6B00D1
(1585903911.464367) vcan0 095#800007F400000008
(1585903911.467579) vcan0 244#0000000154
(1585903911.467695) vcan0 166#D0320018
(1585903911.469034) vcan0 158#0000000000000019
(1585903911.469048) vcan0 161#000005500108001C
(1585903911.469050) vcan0 191#010090A1410003
(1585903911.469052) vcan0 133#00000000A7
(1585903911.469054) vcan0 136#000200000000002A
(1585903911.469055) vcan0 13A#0000000000000028
(1585903911.470215) vcan0 13F#000000050000002E
(1585903911.470230) vcan0 164#0000C01AA8000004
(1585903911.470232) vcan0 17C#0000000010000021
(1585903911.470234) vcan0 18E#00006B
(1585903911.470241) vcan0 1CF#80050000003C
(1585903911.470242) vcan0 1DC#02000039
(1585903911.471346) vcan0 183#0000000700001022
(1585903911.472683) vcan0 143#6B6B00E0
(1585903911.473764) vcan0 039#002A
(1585903911.474836) vcan0 095#800007F400000017
(1585903911.474842) vcan0 1A4#0000000800000010
(1585903911.474844) vcan0 1AA#7FFF000000006810
(1585903911.475906) vcan0 1B0#000F0000000157
(1585903911.475912) vcan0 1D0#000000000000000A
(1585903911.477528) vcan0 166#D0320027
(1585903911.478657) vcan0 158#0000000000000028
(1585903911.478663) vcan0 161#000005500108002B
(1585903911.478666) vcan0 191#010090A1410012
(1585903911.478667) vcan0 133#00000000B6
(1585903911.479789) vcan0 136#0002000000000039
(1585903911.479796) vcan0 13A#0000000000000037
(1585903911.479798) vcan0 13F#000000050000003D
(1585903911.479799) vcan0 164#0000C01AA8000013
(1585903911.479801) vcan0 17C#0000000010000030
(1585903911.480927) vcan0 18E#00007A
(1585903911.480933) vcan0 294#040B0002CF5A002C
(1585903911.480935) vcan0 21E#03E8374522062F
(1585903911.482044) vcan0 183#0000000500001033
(1585903911.482051) vcan0 143#6B6B00FF
(1585903911.482895) vcan0 244#00000001BF
(1585903911.482900) vcan0 188#00000000
(1585903911.484547) vcan0 095#800007F400000026
(1585903911.486879) vcan0 166#D0320036
(1585903911.488036) vcan0 039#0039
(1585903911.488050) vcan0 158#0000000000000037
(1585903911.488052) vcan0 161#000005500108003A
(1585903911.489123) vcan0 191#010090A1410021
(1585903911.489137) vcan0 305#8026
(1585903911.489139) vcan0 133#0000000089
(1585903911.489141) vcan0 136#000200000000000C
(1585903911.489143) vcan0 13A#000000000000000A
(1585903911.490213) vcan0 13F#0000000500000000
(1585903911.490224) vcan0 164#0000C01AA8000022
(1585903911.490226) vcan0 17C#0000000010000003
(1585903911.490227) vcan0 18E#00004D
(1585903911.490229) vcan0 1CF#80050000000F
(1585903911.491300) vcan0 1DC#0200000C
(1585903911.491306) vcan0 183#0000000300001008
(1585903911.492369) vcan0 143#6B6B00C2
(1585903911.493957) vcan0 244#000000015E
(1585903911.493965) vcan0 095#800007F400000035
(1585903911.495251) vcan0 1A4#000000080000002F
(1585903911.495266) vcan0 1AA#7FFF000000006720
(1585903911.495268) vcan0 1B0#000F0000000166
(1585903911.496537) vcan0 1D0#000000000000000A
(1585903911.497716) vcan0 166#D0320009
(1585903911.498891) vcan0 158#000000000000000A
(1585903911.498906) vcan0 161#000005500108000D
(1585903911.498908) vcan0 191#010090A1410030
(1585903911.498910) vcan0 133#0000000098
(1585903911.498911) vcan0 136#000200000000001B
(1585903911.500005) vcan0 13A#0000000000000019
(1585903911.500017) vcan0 13F#000000050000001F
(1585903911.500020) vcan0 164#0000C01AA8000031
(1585903911.500021) vcan0 17C#0000000010000012
(1585903911.500023) vcan0 18E#00005C
(1585903911.502423) vcan0 039#000C
(1585903911.502438) vcan0 183#0000000A00001010
(1585903911.502440) vcan0 143#6B6B00D1
(1585903911.504828) vcan0 095#800007F400000008
(1585903911.506988) vcan0 166#D0320018
(1585903911.508063) vcan0 158#0000000000000019
(1585903911.508069) vcan0 161#000005500108001C
(1585903911.509132) vcan0 191#010090A1410003
(1585903911.509138) vcan0 133#00000000A7
(1585903911.509140) vcan0 136#000200000000002A
(1585903911.509142) vcan0 13A#0000000000000028
(1585903911.509218) vcan0 244#00000001AB
(1585903911.510204) vcan0 13F#000000050000002E
(1585903911.510209) vcan0 164#0000C01AA8000004
(1585903911.510211) vcan0 17C#0000000010000021
(1585903911.510213) vcan0 18E#00006B
(1585903911.510214) vcan0 1CF#80050000001E
(1585903911.511443) vcan0 1DC#0200001B
(1585903911.511449) vcan0 183#0000000700001022
(1585903911.512551) vcan0 143#6B6B00E0
(1585903911.513649) vcan0 333#0000000000002D
(1585903911.514744) vcan0 095#800007F400000017
(1585903911.514757) vcan0 1A4#000000080000003E
(1585903911.515857) vcan0 1AA#7FFF00000000673F
(1585903911.515871) vcan0 1B0#000F0000000175
(1585903911.515873) vcan0 1D0#000000000000000A
(1585903911.515875) vcan0 039#001B
(1585903911.517021) vcan0 166#D0320027
(1585903911.518137) vcan0 158#0000000000000028
(1585903911.518151) vcan0 161#000005500108002B
(1585903911.519440) vcan0 191#010090A1410012
(1585903911.519454) vcan0 133#00000000B6
(1585903911.519456) vcan0 136#0002000000000039
(1585903911.519458) vcan0 13A#0000000000000037
(1585903911.519460) vcan0 13F#000000050000003D
(1585903911.519461) vcan0 164#0000C01AA8000013
(1585903911.519619) vcan0 244#00000001FD
(1585903911.520740) vcan0 17C#0000000010000030
(1585903911.520759) vcan0 18E#00007A
(1585903911.520761) vcan0 294#040B0002CF5A003B
(1585903911.520763) vcan0 21E#03E8374522063E
(1585903911.522016) vcan0 183#0000000500001033
(1585903911.522030) vcan0 143#6B6B00FF
(1585903911.524169) vcan0 095#800007F400000026
(1585903911.527555) vcan0 166#D0320036
(1585903911.528663) vcan0 158#0000000000000037
(1585903911.528677) vcan0 161#000005500108003A
(1585903911.528679) vcan0 191#010010A1410029
(1585903911.528681) vcan0 133#0000000089
(1585903911.529895) vcan0 136#000200000000000C
(1585903911.529911) vcan0 13A#000000000000000A
(1585903911.529913) vcan0 13F#0000000500000000
(1585903911.529915) vcan0 164#0000C01AA8000022
(1585903911.529917) vcan0 17C#0000000010000003
(1585903911.529919) vcan0 18E#00004D
(1585903911.531018) vcan0 1CF#80050000002D
(1585903911.531031) vcan0 1DC#0200002A
(1585903911.531033) vcan0 320#000021
(1585903911.531035) vcan0 324#7465000000000E29
(1585903911.531037) vcan0 37C#FD00FD00097F0029
(1585903911.532157) vcan0 183#0000000B00001000
(1585903911.532164) vcan0 143#6B6B00C2
(1585903911.534358) vcan0 095#800007F400000035
(1585903911.534967) vcan0 244#00000001C4
(1585903911.535514) vcan0 1A4#0000000800000001
(1585903911.535519) vcan0 1AA#7FFF000000006801
(1585903911.535521) vcan0 1B0#000F0000000148
(1585903911.535523) vcan0 1D0#000000000000000A
(1585903911.535525) vcan0 039#002A
(1585903911.536600) vcan0 166#D0320009
(1585903911.537841) vcan0 158#000000000000000A
(1585903911.539008) vcan0 161#000005500108000D
(1585903911.539022) vcan0 191#010010A1410038
(1585903911.539024) vcan0 133#0000000098
(1585903911.539025) vcan0 136#000200000000001B
(1585903911.539027) vcan0 13A#0000000000000019
(1585903911.540092) vcan0 13F#000000050000001F
(1585903911.540104) vcan0 164#0000C01AA8000031
(1585903911.540106) vcan0 17C#0000000010000012
(1585903911.540108) vcan0 18E#00005C
(1585903911.542230) vcan0 183#0000000800001012
(1585903911.542237) vcan0 143#6B6B00D1
(1585903911.544075) vcan0 095#800007F400000008
(1585903911.547615) vcan0 166#D0320018
(1585903911.548731) vcan0 158#0000000000000019
(1585903911.548746) vcan0 161#000005500108001C
(1585903911.548748) vcan0 191#010010A141000B
(1585903911.548750) vcan0 039#0039
(1585903911.548752) vcan0 133#00000000A7
(1585903911.550001) vcan0 136#000200000000002A
(1585903911.550013) vcan0 13A#0000000000000028
(1585903911.550016) vcan0 13F#000000050000002E
(1585903911.550017) vcan0 164#0000C01AA8000004
(1585903911.550019) vcan0 17C#0000000010000021
(1585903911.550021) vcan0 18E#00006B
(1585903911.550492) vcan0 244#00000001E1
(1585903911.551112) vcan0 1CF#80050000003C
(1585903911.551122) vcan0 1DC#02000039
(1585903911.551124) vcan0 183#0000000D0000102C
(1585903911.552228) vcan0 143#6B6B00E0
(1585903911.554434) vcan0 095#800007F400000017
(1585903911.555770) vcan0 1A4#0000000800000010
(1585903911.555784) vcan0 1AA#7FFF000000006810
(1585903911.555786) vcan0 1B0#000F0000000157
(1585903911.555788) vcan0 1D0#000000000000000A
(1585903911.556858) vcan0 166#D0320027
(1585903911.557942) vcan0 158#0000000000000028
(1585903911.559013) vcan0 161#000005500108002B
(1585903911.559020) vcan0 191#010010A141001A
(1585903911.559022) vcan0 133#00000000B6
(1585903911.559024) vcan0 136#0002000000000039
(1585903911.559025) vcan0 13A#0000000000000037
(1585903911.560089) vcan0 13F#000000050000003D
(1585903911.560095) vcan0 164#0000C01AA8000013
(1585903911.560097) vcan0 17C#0000000010000030
(1585903911.560098) vcan0 18E#00007A
(1585903911.561728) vcan0 244#00000001F6
(1585903911.561765) vcan0 294#040B0002CF5A000E
(1585903911.561769) vcan0 21E#03E83745220601
(1585903911.561771) vcan0 309#00000000000000B1
(1585903911.561772) vcan0 183#0000001100001036
(1585903911.563030) vcan0 143#6B6B00FF
(1585903911.564341) vcan0 039#000C
(1585903911.564355) vcan0 095#800007F400000026
(1585903911.566732) vcan0 166#D0320036
(1585903911.567853) vcan0 158#0000000000000037
(1585903911.568971) vcan0 161#000005500108003A
(1585903911.568985) vcan0 191#010010A1410029
(1585903911.568988) vcan0 164#0000C01AA8000022
(1585903911.568990) vcan0 133#0000000089
(1585903911.568991) vcan0 136#000200000000000C
(1585903911.570145) vcan0 13A#000000000000000A
(1585903911.570159) vcan0 13F#0000000500000000
(1585903911.570161) vcan0 17C#0000000010000003
(1585903911.570163) vcan0 18E#00004D
(1585903911.570165) vcan0 1CF#80050000000F
(1585903911.571350) vcan0 1DC#0200000C
(1585903911.571365) vcan0 183#0000000C0000100F
(1585903911.572647) vcan0 143#6B6B00C2
(1585903911.574789) vcan0 095#800007F400000035
(1585903911.574799) vcan0 1A4#000000080000002F
(1585903911.575863) vcan0 1AA#7FFF000000006720
(1585903911.575869) vcan0 1B0#000F0000000166
(1585903911.575871) vcan0 1D0#000000000000000A
(1585903911.577749) vcan0 166#D0320009
(1585903911.577778) vcan0 244#00000001FF
(1585903911.579007) vcan0 158#000000000000000A
(1585903911.579021) vcan0 161#000005500108000D
(1585903911.579023) vcan0 191#010010A1410038
(1585903911.579025) vcan0 039#001B
(1585903911.579027) vcan0 133#0000000098
(1585903911.579029) vcan0 136#000200000000001B
(1585903911.580315) vcan0 13A#0000000000000019
(1585903911.580329) vcan0 13F#000000050000001F
(1585903911.580331) vcan0 164#0000C01AA8000031
(1585903911.580333) vcan0 17C#0000000010000012
(1585903911.580334) vcan0 18E#00005C
(1585903911.582559) vcan0 183#0000001000001019
(1585903911.582573) vcan0 143#6B6B00D1
(1585903911.584758) vcan0 095#800007F400000008
(1585903911.586956) vcan0 166#D0320018
(1585903911.588051) vcan0 158#0000000000000019
(1585903911.588059) vcan0 161#000005500108001C
(1585903911.589293) vcan0 191#010010A141000B
(1585903911.589300) vcan0 133#00000000A7
(1585903911.589303) vcan0 136#000200000000002A
(1585903911.589305) vcan0 13A#0000000000000028
(1585903911.589306) vcan0 13F#000000050000002E
(1585903911.590375) vcan0 164#0000C01AA8000004
(1585903911.590387) vcan0 17C#0000000010000021
(1585903911.590389) vcan0 18E#00006B
(1585903911.590391) vcan0 1CF#80050000001E
(1585903911.590392) vcan0 1DC#0200001B
(1585903911.591482) vcan0 183#0000000C0000102D
(1585903911.592563) vcan0 143#6B6B00E0
(1585903911.592572) vcan0 039#002A
(1585903911.593137) vcan0 244#000000011A
(1585903911.593696) vcan0 305#8035
(1585903911.595674) vcan0 095#800007F400000017
(1585903911.595680) vcan0 1A4#000000080000003E
(1585903911.595682) vcan0 1AA#7FFF00000000673F
(1585903911.595683) vcan0 1B0#000F0000000175
(1585903911.595685) vcan0 1D0#000000000000000A
(1585903911.596855) vcan0 166#D0320027
(1585903911.597970) vcan0 158#0000000000000028
(1585903911.599143) vcan0 161#000005500108002B
(1585903911.599160) vcan0 191#010010A141001A
(1585903911.599163) vcan0 133#00000000B6
(1585903911.599164) vcan0 136#0002000000000039
(1585903911.599166) vcan0 13A#0000000000000037
(1585903911.600302) vcan0 13F#000000050000003D
(1585903911.600311) vcan0 164#0000C01AA8000013
(1585903911.600313) vcan0 17C#0000000010000030
(1585903911.600314) vcan0 18E#00007A
(1585903911.600316) vcan0 294#040B0002CF5A001D
(1585903911.601456) vcan0 21E#03E83745220610
(1585903911.602574) vcan0 183#000000090000103F
(1585903911.602588) vcan0 143#6B6B00FF
(1585903911.604972) vcan0 095#800007F400000026
(1585903911.607118) vcan0 166#D0320036
(1585903911.608192) vcan0 039#0039
(1585903911.608198) vcan0 158#0000000000000037
(1585903911.608200) vcan0 161#000005500108003A
(1585903911.608505) vcan0 244#000000014E
(1585903911.609260) vcan0 191#010010A1410029
(1585903911.609266) vcan0 133#0000000089
(1585903911.609268) vcan0 136#000200000000000C
(1585903911.609270) vcan0 13A#000000000000000A
(1585903911.609272) vcan0 13F#0000000500000000
(1585903911.611360) vcan0 164#0000C01AA9000021
(1585903911.611366) vcan0 17C#0000000010000003
(1585903911.611368) vcan0 18E#00004D
(1585903911.611370) vcan0 1CF#80050000002D
(1585903911.611371) vcan0 1DC#0200002A
(1585903911.611373) vcan0 183#0000000E0000100D
(1585903911.612480) vcan0 143#6B6B00C2
(1585903911.613845) vcan0 333#0000000000003C
(1585903911.614965) vcan0 095#800007F400000035
(1585903911.614979) vcan0 1A4#0000000800000001
(1585903911.614981) vcan0 1AA#7FFF000000006801
(1585903911.616268) vcan0 1B0#000F0000000148
(1585903911.616283) vcan0 1D0#000000000000000A
(1585903911.617570) vcan0 166#D0320009
(1585903911.618891) vcan0 244#000000012F
(1585903911.618962) vcan0 158#000000000000000A
(1585903911.618970) vcan0 161#000005500108000D
(1585903911.618972) vcan0 191#010010A1410038
(1585903911.618974) vcan0 133#0000000098
(1585903911.618976) vcan0 136#000200000000001B
(1585903911.620261) vcan0 13A#0000000000000019
(1585903911.620276) vcan0 13F#000000050000001F
(1585903911.620278) vcan0 164#0000C01AA8000031
(1585903911.620280) vcan0 17C#0000000010000012
(1585903911.620282) vcan0 18E#00005C
(1585903911.620284) vcan0 039#000C
(1585903911.621570) vcan0 183#0000000A00001010
(1585903911.622654) vcan0 143#6B6B00D1
(1585903911.624794) vcan0 095#800007F400000008
(1585903911.627540) vcan0 166#D0320018
(1585903911.628649) vcan0 158#0000000000000019
(1585903911.628664) vcan0 161#000005500108001C
(1585903911.628667) vcan0 191#010010A141000B
(1585903911.628669) vcan0 133#00000000A7
(1585903911.629787) vcan0 136#000200000000002A
(1585903911.629801) vcan0 13A#0000000000000028
(1585903911.629803) vcan0 13F#000000050000002E
(1585903911.629805) vcan0 164#0000C01AA8000004
(1585903911.629807) vcan0 17C#0000000010000021
(1585903911.631065) vcan0 18E#00006B
(1585903911.631079) vcan0 1CF#80050000003C
(1585903911.631082) vcan0 1DC#02000039
(1585903911.631083) vcan0 320#000030
(1585903911.631085) vcan0 324#7465000000000E38
(1585903911.631087) vcan0 37C#FD00FD00097F0038
(1585903911.632215) vcan0 40C#0000000004000013
(1585903911.632225) vcan0 183#0000000F0000102A
(1585903911.632228) vcan0 454#23EF18
(1585903911.632229) vcan0 143#6B6B00E0
(1585903911.634423) vcan0 244#000000016E
(1585903911.634495) vcan0 095#800007F400000017
(1585903911.635620) vcan0 1A4#0000000800000010
(1585903911.635627) vcan0 1AA#7FFF000000006810
(1585903911.635629) vcan0 1B0#000F0000000157
(1585903911.635631) vcan0 1D0#000000000000000A
(1585903911.636751) vcan0 166#D0320027
(1585903911.637885) vcan0 158#0000000000000028
(1585903911.638972) vcan0 161#000005500108002B
(1585903911.638980) vcan0 191#010010A141001A
(1585903911.638982) vcan0 133#00000000B6
(1585903911.638984) vcan0 136#0002000000000039
(1585903911.638986) vcan0 13A#0000000000000037
(1585903911.640050) vcan0 13F#000000050000003D
(1585903911.640058) vcan0 164#0000C01AA9000012
(1585903911.640060) vcan0 17C#0000000010000030
(1585903911.640062) vcan0 18E#00007A
(1585903911.641125) vcan0 294#040B0002CF5A002C
(1585903911.641132) vcan0 039#001B
(1585903911.641134) vcan0 21E#03E8374522062F
(1585903911.642205) vcan0 183#0000001300001034
(1585903911.642213) vcan0 143#6B6B00FF
(1585903911.644372) vcan0 095#800007F400000026
(1585903911.644584) vcan0 244#0000000101
(1585903911.646627) vcan0 166#D0320036
(1585903911.647989) vcan0 158#0000000000000037
(1585903911.649164) vcan0 161#000005500108003A
(1585903911.649187) vcan0 191#010010A1410029
(1585903911.649190) vcan0 164#0000C01AA8000022
(1585903911.649192) vcan0 133#0000000089
(1585903911.649193) vcan0 136#000200000000000C
(1585903911.649195) vcan0 13A#000000000000000A
(1585903911.650393) vcan0 13F#0000000500000000
(1585903911.650402) vcan0 17C#0000000010000003
(1585903911.650404) vcan0 18E#00004D
(1585903911.650406) vcan0 1CF#80050000000F
(1585903911.650407) vcan0 1DC#0200000C
(1585903911.651542) vcan0 183#0000000E0000100D
(1585903911.652842) vcan0 143#6B6B00C2
(1585903911.655074) vcan0 095#800007F400000035
(1585903911.655088) vcan0 1A4#000000080000002F
(1585903911.655090) vcan0 1AA#7FFF000000006720
(1585903911.655092) vcan0 1B0#000F0000000166
(1585903911.656378) vcan0 1D0#000000000000000A
(1585903911.657460) vcan0 166#D0320009
(1585903911.658532) vcan0 158#000000000000000A
(1585903911.658538) vcan0 161#000005500108000D
(1585903911.658541) vcan0 191#010010A1410038
(1585903911.658543) vcan0 133#0000000098
(1585903911.659606) vcan0 136#000200000000001B
(1585903911.659612) vcan0 13A#0000000000000019
(1585903911.659614) vcan0 13F#000000050000001F
(1585903911.659616) vcan0 164#0000C01AA8000031
(1585903911.660084) vcan0 244#0000000149
(1585903911.660678) vcan0 17C#0000000010000012
(1585903911.660684) vcan0 18E#00005C
(1585903911.660686) vcan0 309#0000000000000084
(1585903911.660688) vcan0 428#01040000521C2F
(1585903911.661966) vcan0 405#0000040000000029
(1585903911.661972) vcan0 039#002A
(1585903911.661974) vcan0 183#0000001200001017
(1585903911.661976) vcan0 143#6B6B00D1
(1585903911.664439) vcan0 095#800007F400000008
(1585903911.666823) vcan0 166#D0320018
(1585903911.668123) vcan0 158#0000000000000019
(1585903911.668138) vcan0 161#000005500108001C
